(1522028465.309906) can0 264#0003848C01007D76
(1522028465.310141) can0 342#0027073F0E0039C5
(1522028465.310396) can0 344#A5A1B1A8459C4000
(1522028465.310662) can0 40A#C102393937383100
(1522028465.310916) can0 262#0800080032539DCA
(1522028465.311165) can0 263#00000FFF00000FFE
(1522028465.311405) can0 346#F00F2B80FD000000
(1522028465.311653) can0 417#0002820000000000
(1522028465.311897) can0 441#C06A2A0000000000
(1522028465.312138) can0 010#08F58031002080EA
(1522028465.312373) can0 494#B42412000185055B
(1522028465.315575) can0 050#8000880000000000
(1522028465.315789) can0 111#B000080000006000
(1522028465.316027) can0 113#0000050052070000
(1522028465.316269) can0 091#00007F0F7F090001
(1522028465.316505) can0 115#4E0001FF00000139
(1522028465.316738) can0 117#F935804280588042
(1522028465.316985) can0 118#2207000060000000
(1522028465.317233) can0 119#4305000000000000
(1522028465.317478) can0 121#0000000040000000
(1522028465.317726) can0 122#7D7D3C00F4000000
(1522028465.317972) can0 123#0000300000000000
(1522028465.318212) can0 140#0000000080001388
(1522028465.318451) can0 229#003B801300001C65
(1522028465.318688) can0 25C#F860000002071C65
(1522028465.318936) can0 299#0600000000000000
(1522028465.319183) can0 301#0300000000000000
(1522028465.319914) can0 400#0401020100010200
(1522028465.320190) can0 405#2700000000000000
(1522028465.320908) can0 14A#6BEFF7FF0005FFFF
(1522028465.321155) can0 170#8000800080008000
(1522028465.321396) can0 211#00A00005200B0407
(1522028465.321643) can0 253#01FF02067E010000
(1522028465.321875) can0 254#918F036AF3AF0000
(1522028465.322117) can0 010#09E58031002080EA
(1522028465.329982) can0 264#0003948C0C008176
(1522028465.330173) can0 350#000003DA42E1639C
(1522028465.330594) can0 050#8000880000000000
(1522028465.330782) can0 111#B000080000006000
(1522028465.331025) can0 113#0000050052070000
(1522028465.331252) can0 115#4E0001FF00000138
(1522028465.331490) can0 117#F935804280598042
(1522028465.331742) can0 118#2207000060000000
(1522028465.331983) can0 119#4305000000000000
(1522028465.332225) can0 010#0A730000000080EC
(1522028465.332465) can0 122#7D7D3C00F4000000
(1522028465.332717) can0 123#0000300000000000
(1522028465.332956) can0 339#153F004FC643C1FD
(1522028465.335613) can0 121#0000000040000000
(1522028465.335787) can0 140#00000000800014A8
(1522028465.336015) can0 229#003B801300001C42
(1522028465.336255) can0 25C#F860000002071C42
(1522028465.336498) can0 091#00007F0C7F090001
(1522028465.339927) can0 342#0007073D0E0039C5
(1522028465.340152) can0 344#A5A1B1A8459C0000
(1522028465.340908) can0 14A#6BFE08000005FFFF
(1522028465.341152) can0 170#8000800080008000
(1522028465.341389) can0 211#00A0000520080407
(1522028465.341633) can0 253#01FF02077E010000
(1522028465.341876) can0 254#918FF36A03AF0000
(1522028465.342114) can0 010#0B630000000080EC
(1522028465.342350) can0 262#0800080032539DCA
(1522028465.342598) can0 263#00000FFF00000FFE
(1522028465.342838) can0 346#FF002B80FD000000
(1522028465.343084) can0 417#0002820000000000
(1522028465.345812) can0 050#8000880000000000
(1522028465.345871) can0 111#B000080000006000
(1522028465.346032) can0 113#0000050052070000
(1522028465.346272) can0 115#4E0001FF00000138
(1522028465.346499) can0 117#F935804380598043
(1522028465.346743) can0 118#2207000060000000
(1522028465.346981) can0 119#4305000000000000
(1522028465.347225) can0 122#7D7D3C00F4000000
(1522028465.347476) can0 123#0000300000000000
(1522028465.347720) can0 299#0600000000000000
(1522028465.347968) can0 301#0300000000000000
(1522028465.348208) can0 4EC#8922740000000000
(1522028465.349882) can0 264#0003848C02007D76
(1522028465.350152) can0 494#B42412000185055B
(1522028465.352018) can0 010#0C550031000080EA
(1522028465.355532) can0 121#0000000040000000
(1522028465.355780) can0 140#00000000800015FC
(1522028465.356016) can0 229#003B801300001C38
(1522028465.356260) can0 091#00007F087F090001
(1522028465.356501) can0 25C#F860000002071C38
(1522028465.356733) can0 339#153F0051C643C1FD
(1522028465.360538) can0 050#8000880000000000
(1522028465.360780) can0 111#B000080000006000
(1522028465.361021) can0 113#0000050052080000
(1522028465.361265) can0 115#4E00020000000139
(1522028465.361500) can0 117#F9358048805A8048
(1522028465.361749) can0 118#2207000060000000
(1522028465.362001) can0 119#4305000000000000
(1522028465.362235) can0 010#0D430000000080EC
(1522028465.362477) can0 122#7D7D3C00F4000000
(1522028465.362723) can0 123#0000300000000000
(1522028465.362961) can0 14A#6BFD18000005FFFF
(1522028465.363210) can0 170#8000800080008000
(1522028465.363449) can0 211#00A0000520060407
(1522028465.363695) can0 253#01FF02097E020000
(1522028465.363927) can0 254#918FE36A13AF0000
(1522028465.364176) can0 65A#0000000800000000
(1522028465.366263) can0 04A#00D8D8D8FED8D8D8
(1522028465.369896) can0 264#0003848C00000176
(1522028465.370145) can0 342#0027077F0E0039C5
(1522028465.370409) can0 344#85A1B1A8459C4000
(1522028465.370685) can0 441#C06A2A0000000000
(1522028465.370923) can0 262#0800080032539DCA
(1522028465.371172) can0 263#00000FFF00000FFE
(1522028465.371409) can0 346#FE012B80FD000000
(1522028465.371656) can0 417#0002820000000000
(1522028465.372088) can0 010#0E210000001080EE
(1522028465.375553) can0 050#8000880000000000
(1522028465.375783) can0 111#B000080000006000
(1522028465.376024) can0 113#00000500520B0000
(1522028465.376264) can0 091#00007F0F7F0B0001
(1522028465.376510) can0 115#4E00020000000139
(1522028465.376741) can0 117#F9358059805B8059
(1522028465.376989) can0 118#2208000060000000
(1522028465.377233) can0 119#4305000000000000
(1522028465.377483) can0 121#0000000040000000
(1522028465.377724) can0 122#7D7D3C00F4000000
(1522028465.377972) can0 123#0000300000000000
(1522028465.378216) can0 140#00000000800015D4
(1522028465.378452) can0 229#003B801300001C37
(1522028465.378695) can0 25C#F860000002081C37
(1522028465.378941) can0 299#0600000000000000
(1522028465.379189) can0 301#0300000000000000
(1522028465.379428) can0 444#014C545700009298
(1522028465.380520) can0 339#153F0051C643C1FD
(1522028465.380904) can0 14A#6BFC28000005FFFF
(1522028465.381152) can0 170#8000800080008000
(1522028465.381393) can0 211#00A0000520050407
(1522028465.381637) can0 253#01FF020A7E030000
(1522028465.381870) can0 254#918FD36A23AF0000
(1522028465.382114) can0 010#0FFE0062002080F1
(1522028465.389964) can0 264#0003948C0C008176
(1522028465.390165) can0 494#B4A412000185055B
(1522028465.390539) can0 050#8000880000000000
(1522028465.390780) can0 111#B000080000006000
(1522028465.391022) can0 113#00000500520B0000
(1522028465.391267) can0 115#4E00020000000139
(1522028465.391497) can0 117#F935805980648059
(1522028465.391747) can0 118#2208000060000000
(1522028465.391988) can0 119#4305000000000000
(1522028465.392225) can0 010#00DB00A3003180F3
(1522028465.392466) can0 122#7D7D3C00F4000000
(1522028465.392716) can0 123#0000300000000000
(1522028465.395535) can0 121#0000000040000000
(1522028465.395781) can0 140#00000000800011F9
(1522028465.396019) can0 229#003B801300001BE0
(1522028465.396251) can0 04B#D8D8D8D8D8D8C000
(1522028465.396491) can0 091#00007F0F7F050001
(1522028465.396737) can0 25C#F860000002081BE0
(1522028465.396977) can0 340#191A80007F0FBFFF
(1522028465.399937) can0 342#0027073F0E0039C5
(1522028465.400191) can0 344#A5A1B1A8459C4000
(1522028465.400451) can0 350#002403DA42E1639C
(1522028465.400892) can0 14A#6BFB38000005FFFF
(1522028465.401140) can0 170#8000800080008000
(1522028465.401380) can0 211#00A0000520040407
(1522028465.401626) can0 253#01FF020A7E030000
(1522028465.401861) can0 254#918FC36A33AF0000
(1522028465.402098) can0 010#01B900A3004180F5
(1522028465.402333) can0 262#0800080032539DCA
(1522028465.402580) can0 263#00000FFF00000FFE
(1522028465.402820) can0 346#FD022B80FD000000
(1522028465.403069) can0 417#0002820000000000
(1522028465.405550) can0 050#8000880000000000
(1522028465.405790) can0 111#B000080000006000
(1522028465.406033) can0 113#00000500520B0000
(1522028465.406278) can0 115#4E0002000000013A
(1522028465.406504) can0 117#F935805780648057
(1522028465.406748) can0 118#220A000060000000
(1522028465.406991) can0 119#4305000000000000
(1522028465.407232) can0 122#7D7D3C00F4000000
(1522028465.407480) can0 123#0000300000000000
(1522028465.407726) can0 299#0600000000000000
(1522028465.407974) can0 301#0300000000000000
(1522028465.408210) can0 339#153F0051C643C1FD
(1522028465.409894) can0 264#0003848C01007D76
(1522028465.412015) can0 010#029600A3005180F8
(1522028465.415532) can0 121#0000000040000000
(1522028465.415776) can0 140#00000000800011F7
(1522028465.416014) can0 229#003B801300001BB4
(1522028465.416257) can0 091#00007F087F050001
(1522028465.416499) can0 25C#F8600000020A1BB4
(1522028465.420545) can0 050#8000880000000000
(1522028465.420781) can0 111#B000080000006000
(1522028465.421023) can0 113#00000500520B0000
(1522028465.421264) can0 115#4E0002000000013A
(1522028465.421494) can0 117#F9358057806C8057
(1522028465.421739) can0 118#220A000060000000
(1522028465.421980) can0 119#4305000000000000
(1522028465.422216) can0 010#037300A3006280FA
(1522028465.422457) can0 122#7D7D3C00F4000000
(1522028465.422706) can0 123#0000300000000000
(1522028465.422944) can0 14A#6BFA47FF0005FFFF
(1522028465.423192) can0 170#8000800080008000
(1522028465.423434) can0 211#00A0000520020407
(1522028465.423681) can0 253#01FF02097E020000
(1522028465.423913) can0 254#918FB36A43AF0000
(1522028465.429887) can0 264#0003948C0E008176
(1522028465.430140) can0 342#0007073D0E0039C5
(1522028465.430429) can0 344#A5A1B1A8459C0000
(1522028465.430661) can0 339#153F0051C643C1FD
(1522028465.430892) can0 40A#C103488032880911
(1522028465.431131) can0 262#0800080032539DCB
(1522028465.431378) can0 263#00000FFF00000FFE
(1522028465.431618) can0 346#FC032B80FD000000
(1522028465.431866) can0 417#0002820000000000
(1522028465.432101) can0 010#045100A3007280FC
(1522028465.432346) can0 441#C06A2A0000000000
(1522028465.432619) can0 494#B42412000185055B
(1522028465.435541) can0 050#8000880000000000
(1522028465.435784) can0 111#B000080000006000
(1522028465.436027) can0 113#00000500520A0000
(1522028465.436268) can0 091#00007F057F090001
(1522028465.436507) can0 115#4E0002010000013D
(1522028465.436737) can0 117#F9358054806C8054
(1522028465.436981) can0 118#220A000060000000
(1522028465.437223) can0 119#4305000000000000
(1522028465.437474) can0 121#0000000040000000
(1522028465.437717) can0 122#7D7D3C00F4000000
(1522028465.437963) can0 123#0000300000000000
(1522028465.438209) can0 140#000000008000125E
(1522028465.438444) can0 229#003B801300001BB1
(1522028465.438685) can0 25C#F8600000020A1BB1
(1522028465.438931) can0 299#0600000000000000
(1522028465.439179) can0 301#0300000000000000
(1522028465.440924) can0 14A#6BF957FF0005FFFF
(1522028465.441169) can0 170#8000800080008000
(1522028465.441412) can0 211#00A0000520020407
(1522028465.441656) can0 253#01FF02087E020000
(1522028465.441889) can0 254#918FA36A53AF0000
(1522028465.442129) can0 010#052E00A3008380FE
(1522028465.445532) can0 444#014C545700009298
(1522028465.445771) can0 4EC#8922740000000000
(1522028465.449895) can0 264#0003848C00007D76
(1522028465.450530) can0 050#8000880000000000
(1522028465.450773) can0 111#B000080000006000
(1522028465.451017) can0 113#00000500520A0000
(1522028465.451255) can0 115#4E0002010000013D
(1522028465.451485) can0 117#F935805480708054
(1522028465.451729) can0 118#220A000060000000
(1522028465.451971) can0 119#4305000000000000
(1522028465.452215) can0 010#06F800D400A38103
(1522028465.452456) can0 122#7D7D3C00F4000000
(1522028465.452704) can0 123#0000300000000000
(1522028465.455533) can0 121#0000000040000000
(1522028465.455779) can0 140#000000008000123C
(1522028465.456016) can0 229#003B801300001BB1
(1522028465.456260) can0 091#00007F017F0D0001
(1522028465.456500) can0 25C#F8600000020A1BB1
(1522028465.456735) can0 339#153F0054C643C1FD
(1522028465.459950) can0 342#0027077F0E0039C5
(1522028465.460200) can0 344#A5A1B1A8459C4000
(1522028465.460891) can0 14A#6BF868000005FFFF
(1522028465.461139) can0 170#8000800080008000
(1522028465.461390) can0 211#00A0000520010407
(1522028465.461632) can0 253#01FF02077E020000
(1522028465.461861) can0 254#918F936A63AF0000
(1522028465.462104) can0 010#07E600D400A38105
(1522028465.462336) can0 262#0800080033539ECB
(1522028465.462584) can0 263#00000FFF00000FFE
(1522028465.462824) can0 346#FB042B80FD000000
(1522028465.463072) can0 417#0002820000000000
(1522028465.463320) can0 65A#0000000800000000
(1522028465.465545) can0 050#8000880000000000
(1522028465.465788) can0 111#B000080000006000
(1522028465.466030) can0 113#00000500520F0000
(1522028465.466262) can0 04A#00D8D8D8FED8D8D8
(1522028465.466501) can0 115#4E0002010000013E
(1522028465.466733) can0 117#F935806B806F806B
(1522028465.466979) can0 118#220D000060000000
(1522028465.467221) can0 119#4305000000000000
(1522028465.467462) can0 122#7D7D3C00F4000000
(1522028465.467710) can0 123#0000300000000000
(1522028465.467957) can0 299#0600000000000000
(1522028465.468205) can0 301#0300000000000000
(1522028465.469929) can0 264#0003948C0C008176
(1522028465.470179) can0 350#002403DA42E1E39C
(1522028465.470449) can0 494#B4A412000185055B
(1522028465.472038) can0 010#08D400D400A38107
(1522028465.475536) can0 121#0000000040000000
(1522028465.475780) can0 140#000000008000113B
(1522028465.476019) can0 229#003B801300001B7E
(1522028465.476261) can0 091#00007F017F0B0001
(1522028465.476503) can0 25C#F8600000020D1B7E
(1522028465.480533) can0 050#8000880000000000
(1522028465.480772) can0 111#B000080000006000
(1522028465.481011) can0 113#0000050052100000
(1522028465.481251) can0 115#4E0002010000013E
(1522028465.481488) can0 117#F935807380808073
(1522028465.481731) can0 118#220D000060000000
(1522028465.481974) can0 119#4305000000000000
(1522028465.482209) can0 010#09C100A300A3810A
(1522028465.482452) can0 122#7D7D3C00F4000000
(1522028465.482700) can0 123#0000300000000000
(1522028465.482940) can0 14A#6BF778010005FFFF
(1522028465.483188) can0 170#8000800080008000
(1522028465.483428) can0 211#00A0000520010407
(1522028465.483673) can0 253#01FF02087E020000
(1522028465.483906) can0 254#918F836A73AF0000
(1522028465.484142) can0 339#153F0054C643C1FD
(1522028465.489892) can0 264#0003848C00000176
(1522028465.490147) can0 342#0007073D0E0039C5
(1522028465.490402) can0 344#85A1B1A8459C0000
(1522028465.490686) can0 441#C06A2A0000000000
(1522028465.490920) can0 262#0800080033539ECB
(1522028465.491172) can0 263#00000FFF00000FFE
(1522028465.491409) can0 346#FA052B80FD000000
(1522028465.491657) can0 417#0002820000000000
(1522028465.492082) can0 010#0AAF00A300A3810C
(1522028465.495540) can0 050#8000880000000000
(1522028465.495783) can0 111#B000080000006000
(1522028465.496026) can0 113#00000500520E0000
(1522028465.496256) can0 04B#D8D8D8D8D8D8C000
(1522028465.496499) can0 091#00007F087F0D0001
(1522028465.496736) can0 115#4E00020300000142
(1522028465.496969) can0 117#F935806980808069
(1522028465.497216) can0 118#220E000060000000
(1522028465.497458) can0 119#4305000000000000
(1522028465.497708) can0 121#0000000040000000
(1522028465.497950) can0 122#7D7D3C00F4000000
(1522028465.498199) can0 123#0000300000000000
(1522028465.498445) can0 140#00000000800011BA
(1522028465.498683) can0 229#003B801300001B79
(1522028465.498923) can0 25C#F8600000020E1B79
(1522028465.499172) can0 299#0600000000000000
(1522028465.499418) can0 301#0300000000000000
(1522028465.499663) can0 340#191A80007F0FBFFF
(1522028465.500925) can0 14A#6BF688000005FFFF
(1522028465.501172) can0 170#8000800080008000
(1522028465.501412) can0 211#00A0000520010407
(1522028465.501657) can0 253#01FF020A7E030000
(1522028465.501891) can0 254#918F736A83AF0000
(1522028465.502128) can0 010#0B9D00A300A3810E
(1522028465.505526) can0 339#153F0054C643C1FD
(1522028465.509885) can0 264#0003948C0D00FD76
(1522028465.510152) can0 494#B42412000185055B
(1522028465.510532) can0 050#8000880000000000
(1522028465.510777) can0 111#B000080000006000
(1522028465.511019) can0 113#00000500520E0000
(1522028465.511256) can0 115#4E00020300000142
(1522028465.511487) can0 117#F935806980858069
(1522028465.511733) can0 118#220E000060000000
(1522028465.511976) can0 119#4305000000000000
(1522028465.512213) can0 010#0C7700D400B48113
(1522028465.512455) can0 122#7D7D3C00F4000000
(1522028465.512703) can0 123#0000300000000000
(1522028465.515535) can0 121#0000000040000000
(1522028465.515780) can0 140#0000000080001202
(1522028465.516018) can0 229#003B801300001B78
(1522028465.516260) can0 091#00007F057F0D0001
(1522028465.516503) can0 25C#F8600000020E1B78
(1522028465.516738) can0 444#014C565900009298
(1522028465.519901) can0 342#0027073F0E0039C5
(1522028465.520150) can0 344#A5A1B1A8459C4000
(1522028465.520895) can0 14A#6BF598010005FFFF
(1522028465.521143) can0 170#8000801F80008000
(1522028465.521384) can0 211#00A0000520000407
(1522028465.521629) can0 253#01FF020B7E040000
(1522028465.521857) can0 254#918F636A93AF0000
(1522028465.522096) can0 010#0D6500D400B48115
(1522028465.522330) can0 262#0800080033539ECB
(1522028465.522578) can0 263#00000FFF00000FFE
(1522028465.522816) can0 346#F9062B80FD000000
(1522028465.523064) can0 417#0002820000000000
(1522028465.525571) can0 050#8000880000000000
(1522028465.525815) can0 111#B000080000006000
(1522028465.526057) can0 113#00000500520E0000
(1522028465.526297) can0 115#4E00020300000144
(1522028465.526529) can0 117#F935806680858066
(1522028465.526775) can0 118#220E000060000000
(1522028465.527022) can0 119#4305000000000000
(1522028465.527261) can0 122#7D7D3C00F4000000
(1522028465.527507) can0 123#0000300000000000
(1522028465.527753) can0 299#0600000000000000
(1522028465.528001) can0 301#0300000000000000
(1522028465.529883) can0 264#0003848C02000176
(1522028465.530520) can0 339#153F0054C643C1FD
(1522028465.532014) can0 010#0E5300D400B48117
(1522028465.535532) can0 121#0000000040000000
(1522028465.535779) can0 140#000000008000111F
(1522028465.536015) can0 229#003B801300001B3A
(1522028465.536260) can0 091#00007F017F0F0001
(1522028465.536501) can0 25C#F8600000020E1B3A
(1522028465.539902) can0 350#002403DA42E1639C
(1522028465.540532) can0 050#8000880000000000
(1522028465.540776) can0 111#B000080000006000
(1522028465.541018) can0 113#00000500520E0000
(1522028465.541258) can0 115#4E00020300000144
(1522028465.541488) can0 117#F935806680858066
(1522028465.541734) can0 118#220E000060000000
(1522028465.541976) can0 119#4305000000000000
(1522028465.542210) can0 010#0F5100A300A3811A
(1522028465.542452) can0 122#7D7D3C00F4000000
(1522028465.542700) can0 123#0000300000000000
(1522028465.542940) can0 14A#6BF4A8010005FFFF
(1522028465.543176) can0 170#8022802C80298000
(1522028465.543419) can0 211#00A0000520000407
(1522028465.543663) can0 253#01FF020B7E020000
(1522028465.543894) can0 254#918F536AA3AF0000
(1522028465.545534) can0 4EC#8922740000000000
(1522028465.549896) can0 264#0003948C0C00FD76
(1522028465.550153) can0 342#0027073F0E0039C5
(1522028465.550414) can0 344#A5A1B1A8459C4000
(1522028465.550690) can0 40A#C104017508700000
(1522028465.550925) can0 262#0800080033549ECB
(1522028465.551172) can0 263#00000FFF00000FFE
(1522028465.551411) can0 346#F8072B80FD000000
(1522028465.551659) can0 417#0002820000000000
(1522028465.551903) can0 441#C06A2A0000000000
(1522028465.552142) can0 010#003F00A300A3811C
(1522028465.552378) can0 494#B42412000185055B
(1522028465.555540) can0 050#8000880000000000
(1522028465.555785) can0 111#B000080000006000
(1522028465.556023) can0 113#0000050052130000
(1522028465.556266) can0 091#00007F057F0F0001
(1522028465.556505) can0 115#4E00020300000147
(1522028465.556738) can0 117#F935807E8087807E
(1522028465.556985) can0 118#220C000060000000
(1522028465.557227) can0 119#4305000000000000
(1522028465.557477) can0 121#0000000040000000
(1522028465.557719) can0 122#7D7D3C00F4000000
(1522028465.557967) can0 123#0000300000000000
(1522028465.558213) can0 140#0000000080001183
(1522028465.558450) can0 229#003B801300001B33
(1522028465.558692) can0 25C#F8600000020C1B33
(1522028465.558938) can0 299#0600000000000000
(1522028465.559186) can0 301#0300000000000000
(1522028465.559419) can0 339#153F0056C643C1FD
(1522028465.560886) can0 14A#6BF3B8010005FFFF
(1522028465.561115) can0 170#8033802C80308030
(1522028465.561354) can0 211#00A0000520000407
(1522028465.561602) can0 253#01FF020A7E020000
(1522028465.561830) can0 254#918F436AB3AF0000
(1522028465.562067) can0 010#012D00A300A3811E
(1522028465.562316) can0 65A#0000000800000000
(1522028465.566115) can0 04A#00D8D8D8FED8D8D8
(1522028465.569894) can0 264#0003848C00000176
(1522028465.570163) can0 400#0502040002010202
(1522028465.570431) can0 405#016711472F280000
(1522028465.570679) can0 050#8000880000000000
(1522028465.570923) can0 111#B000080000006000
(1522028465.571165) can0 113#0000050052140000
(1522028465.571403) can0 115#4E00020300000147
(1522028465.571633) can0 117#F935808680788086
(1522028465.571879) can0 118#220C000060000000
(1522028465.572118) can0 010#020700D400B48123
(1522028465.572360) can0 119#4305000000000000
(1522028465.572602) can0 122#7D7D3C00F4000000
(1522028465.572851) can0 123#0000300000000000
(1522028465.575535) can0 121#0000000040000000
(1522028465.575778) can0 140#00000000800011B6
(1522028465.576017) can0 229#003B801300001B31
(1522028465.576259) can0 091#00007F057F0F0001
(1522028465.576500) can0 25C#F8600000020C1B31
(1522028465.579904) can0 342#0007077D0E0039C5
(1522028465.580155) can0 344#A5A1B1A8459C0000
(1522028465.580522) can0 339#153F0056C643C1FD
(1522028465.580903) can0 14A#6BF2C8010005FFFF
(1522028465.581138) can0 170#8033802C80308033
(1522028465.581382) can0 211#00A0000520000407
(1522028465.581624) can0 253#01FF02087E010000
(1522028465.581853) can0 254#918F336AC3AF0000
(1522028465.582091) can0 010#03F500D400B48125
(1522028465.582325) can0 262#0800080033549ECB
(1522028465.582573) can0 263#00000FFF00000FFE
(1522028465.582811) can0 346#F7082B80FD000000
(1522028465.583059) can0 417#0002820000000000
(1522028465.585544) can0 050#8000880000000000
(1522028465.585788) can0 111#B000080000006000
(1522028465.586025) can0 113#0000050052120000
(1522028465.586264) can0 115#4E0002030000014A
(1522028465.586500) can0 117#F935807C807B807C
(1522028465.586743) can0 118#220D000060000000
(1522028465.586986) can0 119#4305000000000000
(1522028465.587227) can0 122#7D7D3C00F4000000
(1522028465.587475) can0 123#0000300000000000
(1522028465.587722) can0 299#0600000000000000
(1522028465.587969) can0 301#0300000000000000
(1522028465.588206) can0 444#014C595E00009298
(1522028465.589888) can0 264#0003848C00000176
(1522028465.590151) can0 494#B4A412000185055B
(1522028465.592014) can0 010#04E300D400B48127
(1522028465.595533) can0 121#0000000040000000
(1522028465.595776) can0 140#0000000080001111
(1522028465.596016) can0 229#003B801300001AF8
(1522028465.596246) can0 04B#D8D8D8D8D8D8C000
(1522028465.596486) can0 091#00007F087F0B0001
(1522028465.596727) can0 25C#F8600000020D1AF8
(1522028465.596968) can0 340#191A80007F0FBFFF
(1522028465.600532) can0 050#8000880000000000
(1522028465.600766) can0 111#B000080000006000
(1522028465.601005) can0 113#0000050052120000
(1522028465.601244) can0 115#4E0002030000014A
(1522028465.601478) can0 117#F935807C807B807C
(1522028465.601722) can0 118#220D000060000000
(1522028465.601964) can0 119#4305000000000000
(1522028465.602200) can0 010#05CE00D400B4812C
(1522028465.602442) can0 122#7D7D3C00F4000000
(1522028465.602690) can0 123#0000300000000000
(1522028465.602929) can0 14A#6BF1D8010005FFFF
(1522028465.603163) can0 170#8033802C80308033
(1522028465.603406) can0 211#00A0000520000407
(1522028465.603650) can0 253#01FF02097E010000
(1522028465.603880) can0 254#918F236AD3AF0000
(1522028465.605523) can0 339#153F0056C643C1FD
(1522028465.609889) can0 264#0003948C0F00FD76
(1522028465.610150) can0 342#0027073F0E0039C5
(1522028465.610409) can0 344#85A1B1A8459C4000
(1522028465.610671) can0 350#002403DA42C9639C
(1522028465.610912) can0 262#0800080033549ECB
(1522028465.611153) can0 263#00000FFF00000FFE
(1522028465.611391) can0 346#F6092B80FD000000
(1522028465.611638) can0 417#0002820000000000
(1522028465.611882) can0 441#C06A2A0000000000
(1522028465.612122) can0 010#06BC00D400B4812E
(1522028465.615539) can0 050#8000880000000000
(1522028465.615783) can0 111#B000080000006000
(1522028465.616023) can0 113#0000050052110000
(1522028465.616266) can0 091#00007F087F070001
(1522028465.616503) can0 115#4E0002030000014C
(1522028465.616734) can0 117#F9358075807D8075
(1522028465.616978) can0 118#220D000060000000
(1522028465.617221) can0 119#4305000000000000
(1522028465.617470) can0 121#0000000040000000
(1522028465.617713) can0 122#7D7D3C00F4000000
(1522028465.617961) can0 123#0000300000000000
(1522028465.618205) can0 140#000000008000112A
(1522028465.618442) can0 229#003B801300001AF2
(1522028465.618684) can0 25C#F8600000020D1AF2
(1522028465.618930) can0 299#0600000000000000
(1522028465.619212) can0 301#0300000000000000
(1522028465.620882) can0 14A#6BF0E8000005FFFF
(1522028465.621113) can0 170#8033802C80308033
(1522028465.621354) can0 211#00A0000520000407
(1522028465.621599) can0 253#01FF020B7E020000
(1522028465.621829) can0 254#918F136AE3AF0000
(1522028465.622065) can0 010#0797010600C48133
(1522028465.629888) can0 264#0003848C00000176
(1522028465.630155) can0 494#B42412000185055B
(1522028465.630531) can0 050#8000880000000000
(1522028465.630775) can0 111#B000080000006000
(1522028465.631016) can0 113#0000050052110000
(1522028465.631253) can0 115#4E0002030000014C
(1522028465.631485) can0 117#F9358075807E8075
(1522028465.631732) can0 118#220E000060000000
(1522028465.631974) can0 119#4305000000000000
(1522028465.632212) can0 010#088500D400C48135
(1522028465.632453) can0 122#7D7D3C00F4000000
(1522028465.632702) can0 123#0000300000000000
(1522028465.632935) can0 339#153F0056C643C1FD
(1522028465.635532) can0 121#0000000040000000
(1522028465.635778) can0 140#00000000800010CA
(1522028465.636013) can0 229#003B801300001AE4
(1522028465.636258) can0 091#00007F087F090001
(1522028465.636499) can0 25C#F8600000020E1AE4
(1522028465.639950) can0 342#0007073D0E0039C5
(1522028465.640206) can0 344#A5A1B1A8459C0000
(1522028465.640913) can0 14A#6BEFF8000005FFFF
(1522028465.641144) can0 170#8038803880388033
(1522028465.641387) can0 211#00A0000520000407
(1522028465.641630) can0 253#01FF020B7E020000
(1522028465.641862) can0 254#918F036AF3AF0000
(1522028465.642098) can0 010#0961010600D48139
(1522028465.642337) can0 262#0800080033549FCC
(1522028465.642584) can0 263#00000FFF00000FFE
(1522028465.642820) can0 346#F50A2B80FD000000
(1522028465.643069) can0 417#0002820000000000
(1522028465.645539) can0 050#8000880000000000
(1522028465.645783) can0 111#B000080000006000
(1522028465.646022) can0 113#0000050052100000
(1522028465.646261) can0 115#4E0002030000014E
(1522028465.646493) can0 117#F935807380818073
(1522028465.646739) can0 118#220E000060000000
(1522028465.646980) can0 119#4305000000000000
(1522028465.647223) can0 122#7D7D3C00F4000000
(1522028465.647471) can0 123#0000300000000000
(1522028465.647718) can0 299#0600000000000000
(1522028465.647965) can0 301#0300000000000000
(1522028465.648205) can0 4EC#8922740000000000
(1522028465.649907) can0 264#0003948C0C00FD76
(1522028465.652032) can0 010#0A3B010600E5813E
(1522028465.655532) can0 121#0000000040000000
(1522028465.655778) can0 140#00000000800010B8
(1522028465.656014) can0 229#003B801300001AC8
(1522028465.656255) can0 091#00007F0C7F0B0001
(1522028465.656495) can0 25C#F8600000020D1AC8
(1522028465.656729) can0 339#153F0058C643C1FD
(1522028465.656965) can0 444#014B5C6400009298
(1522028465.660526) can0 050#8000880000000000
(1522028465.660768) can0 111#B000080000006000
(1522028465.661007) can0 113#0000050052100000
(1522028465.661246) can0 115#4E0002030000014E
(1522028465.661478) can0 117#F935807380818073
(1522028465.661726) can0 118#220D000060000000
(1522028465.661964) can0 119#4305000000000000
(1522028465.662205) can0 010#0B3A010600D48140
(1522028465.662447) can0 122#7D7D3C00F4000000
(1522028465.662697) can0 123#0000300000000000
(1522028465.662938) can0 14A#6BFE08000005FFFF
(1522028465.663171) can0 170#803D8038803A803D
(1522028465.663414) can0 211#00A0000520000407
(1522028465.663659) can0 253#01FF020C7E020000
(1522028465.663905) can0 254#918FF36A03AF0000
(1522028465.664143) can0 65A#0000000800000000
(1522028465.666219) can0 04A#00D8D8D8FED8D8D8
(1522028465.669947) can0 264#0003848C00000176
(1522028465.670160) can0 342#0027077F0E0039C5
(1522028465.670412) can0 344#A5A1B1A8459C4000
(1522028465.670693) can0 40A#C105FFFFFFFF0000
(1522028465.670928) can0 262#0800080034549FCC
(1522028465.671173) can0 263#00000FFF00000FFE
(1522028465.671414) can0 346#F40B2B80FD000000
(1522028465.671661) can0 417#0002820000000000
(1522028465.671906) can0 441#C06A2A0000000000
(1522028465.672145) can0 010#0C14010600E58145
(1522028465.672379) can0 494#B4A412000185055B
(1522028465.675565) can0 050#8000880000000000
(1522028465.675786) can0 111#B000080000006000
(1522028465.676026) can0 113#00000500520F0000
(1522028465.676276) can0 091#00007F167F0D0001
(1522028465.676509) can0 115#4E00020400000152
(1522028465.676738) can0 117#F935806D807F806D
(1522028465.676982) can0 118#220D000060000000
(1522028465.677223) can0 119#4305000000000000
(1522028465.677472) can0 121#0000000040000000
(1522028465.677715) can0 122#7D7D3C00F4000000
(1522028465.677963) can0 123#0000300000000000
(1522028465.678208) can0 140#00000000800010E4
(1522028465.678445) can0 229#003B801300001AC7
(1522028465.678690) can0 25C#F8600000020D1AC7
(1522028465.678934) can0 299#0600000000000000
(1522028465.679189) can0 301#0300000000000000
(1522028465.679919) can0 350#000003DA42C9E39C
(1522028465.680531) can0 339#153F0058C643C1FD
(1522028465.680875) can0 14A#6BFD18000005FFFF
(1522028465.681110) can0 170#803D8038803A803D
(1522028465.681351) can0 211#00A0000520000407
(1522028465.681597) can0 253#01FF020C7E020000
(1522028465.681827) can0 254#918FE36A13AF0000
(1522028465.682067) can0 010#0D0200D400E58147
(1522028465.689929) can0 264#0003948C0E008176
(1522028465.690528) can0 050#8000880000000000
(1522028465.690772) can0 111#B000080000006000
(1522028465.691009) can0 113#0000050052140000
(1522028465.691250) can0 115#4E00020400000152
(1522028465.691483) can0 117#F935806D807F8082
(1522028465.691729) can0 118#220E000060000000
(1522028465.691971) can0 119#4305000000000000
(1522028465.692211) can0 010#0E0100D400D48149
(1522028465.692449) can0 122#7D813C1CF4000000
(1522028465.692697) can0 123#0000300000000000
(1522028465.695535) can0 121#0000000040000000
(1522028465.695780) can0 140#00000000800010F2
(1522028465.696026) can0 229#003B801300001AB0
(1522028465.696268) can0 04B#D8D8D8D8D8D8C000
(1522028465.696495) can0 091#00007F137F090001
(1522028465.696733) can0 25C#F8600000020E1AB0
(1522028465.696973) can0 340#191A80007F0FBFFF
(1522028465.699977) can0 342#0027073F0E0039C5
(1522028465.700224) can0 344#A5A1B1A8459C4000
(1522028465.700876) can0 14A#6BFC28010005FFFF
(1522028465.701110) can0 170#803D803D803A803D
(1522028465.701353) can0 211#00A0000520000407
(1522028465.701596) can0 253#01FF020B7E020000
(1522028465.701828) can0 254#918FD36A23AF0000
(1522028465.702065) can0 262#0800080034549FCC
(1522028465.702301) can0 010#0FEE00A300D4814C
(1522028465.702549) can0 263#00000FFF00000FFE
(1522028465.702784) can0 346#F30C2B80FD000000
(1522028465.703032) can0 417#0002820000000000
(1522028465.705539) can0 050#8000880000000000
(1522028465.705783) can0 111#B000080000006000
(1522028465.706021) can0 113#0000050052150000
(1522028465.706262) can0 115#4E00020300000154
(1522028465.706494) can0 117#F935806D8083808B
(1522028465.706740) can0 118#220F000060000000
(1522028465.706983) can0 119#4305000000000000
(1522028465.707223) can0 122#7D7D3C20F4000000
(1522028465.707471) can0 123#0000300000000000
(1522028465.707718) can0 299#0600000000000000
(1522028465.707965) can0 301#0300000000000000
(1522028465.708200) can0 339#153F0058C643C1FD
(1522028465.709884) can0 264#0003848C01007D76
(1522028465.710149) can0 494#B42412000185055B
(1522028465.712013) can0 010#00EC00A300C4814E
(1522028465.715539) can0 121#0000000040000000
(1522028465.715775) can0 140#0000000080001193
(1522028465.716012) can0 229#003B801300001AA6
(1522028465.716253) can0 091#00007F0F7F070001
(1522028465.716495) can0 25C#F8600000020F1AA6
(1522028465.720542) can0 050#8000880000000000
(1522028465.720778) can0 111#B000080000006000
(1522028465.721019) can0 113#0000050052170000
(1522028465.721260) can0 115#4E00020300000154
(1522028465.721491) can0 117#F935806D80888093
(1522028465.721738) can0 118#220F000060000000
(1522028465.721980) can0 119#4305000000000000
(1522028465.722219) can0 010#01C700D400D48153
(1522028465.722459) can0 122#7D7D3C23F4000000
(1522028465.722707) can0 123#0000300000000000
(1522028465.722945) can0 14A#6BFB38000005FFFF
(1522028465.723181) can0 170#8044804480478041
(1522028465.723425) can0 211#00A0000520000407
(1522028465.723672) can0 253#01FF02097E000000
(1522028465.723899) can0 254#918F7A6A33AF0049
(1522028465.725540) can0 444#014B5C6400009298
(1522028465.729895) can0 264#0003848C00000176
(1522028465.730152) can0 342#0007073D0E0039C5
(1522028465.730410) can0 344#85A1B1A8459C0000
(1522028465.730644) can0 339#153F0058C643C1FD
(1522028465.730879) can0 262#0800080034559FCC
(1522028465.731127) can0 263#00000FFF00000FFE
(1522028465.731361) can0 346#F20D2B80FD000000
(1522028465.731610) can0 417#0002820000000000
(1522028465.731854) can0 441#C06A2A0000000000
(1522028465.732136) can0 010#02D700D400B48153
(1522028465.735535) can0 050#8000880000000000
(1522028465.735780) can0 111#B000080000006000
(1522028465.736020) can0 113#0000050052180000
(1522028465.736261) can0 091#00007F0F7F070001
(1522028465.736499) can0 115#4E00020300000157
(1522028465.736729) can0 117#F935806180888096
(1522028465.736975) can0 118#2210000060000000
(1522028465.737217) can0 119#4305000000000000
(1522028465.737467) can0 121#0000000040000000
(1522028465.737703) can0 122#7D7D3C25F400000C
(1522028465.737952) can0 123#0000300000000000
(1522028465.738200) can0 140#0000000080001107
(1522028465.738436) can0 229#003B801300001A94
(1522028465.738677) can0 25C#F860000002101A94
(1522028465.738924) can0 299#0600000000000000
(1522028465.739173) can0 301#0300000000000000
(1522028465.740867) can0 14A#6BFA48000005FFFF
(1522028465.741096) can0 170#8047804480478047
(1522028465.741337) can0 211#00A0000520000407
(1522028465.741581) can0 253#01FF020A7E020000
(1522028465.741814) can0 254#918F5F6A43AF0054
(1522028465.742053) can0 010#03D600A300A38155
(1522028465.745531) can0 4EC#8922740000000000
(1522028465.749898) can0 264#0003948C0C00FD76
(1522028465.750152) can0 350#002403DA42C9639C
(1522028465.750422) can0 494#B42412000185055B
(1522028465.750670) can0 050#8000880000000000
(1522028465.750915) can0 111#B000080000006000
(1522028465.751154) can0 113#0000050052180000
(1522028465.751392) can0 115#4E00020300000157
(1522028465.751622) can0 117#F9358061808D809B
(1522028465.751869) can0 118#2210000060000000
(1522028465.752104) can0 010#04C4006200A38157
(1522028465.752346) can0 119#4305000000000000
(1522028465.752583) can0 122#7D7D3C27F4000016
(1522028465.752831) can0 123#0000300000000000
(1522028465.755535) can0 121#0000000040000000
(1522028465.755780) can0 140#0000000080001143
(1522028465.756017) can0 229#003B801300001A71
(1522028465.756260) can0 091#00007F167F0B0001
(1522028465.756501) can0 25C#F860000002101A71
(1522028465.756734) can0 339#153F005BC643C1FD
(1522028465.759894) can0 342#0027077F0E0039C5
(1522028465.760148) can0 344#A5A1B1A8459C4000
(1522028465.760858) can0 14A#6BF958000005FFFF
(1522028465.761093) can0 170#8047804480478047
(1522028465.761333) can0 211#00A0000520000407
(1522028465.761579) can0 253#01FF020C7E020000
(1522028465.761812) can0 254#918F4F6A53AF0054
(1522028465.762045) can0 262#0801080134559FCC
(1522028465.762282) can0 010#05D4006200838157
(1522028465.762530) can0 263#00000FFF00000FFE
(1522028465.762767) can0 346#F10E2B80FD000000
(1522028465.763016) can0 417#0002820000000000
(1522028465.763265) can0 65A#0000000800000000
(1522028465.765539) can0 050#8000880000000000
(1522028465.765783) can0 111#B000080000006000
(1522028465.766024) can0 113#0000050052190000
(1522028465.766256) can0 04A#00D8D8D8FED8D8D8
(1522028465.766495) can0 115#4E0002040000015A
(1522028465.766728) can0 117#F935805F808D809F
(1522028465.766972) can0 118#2215000060000000
(1522028465.767215) can0 119#4305000000000000
(1522028465.767454) can0 122#7D7D3C29F4000029
(1522028465.767702) can0 123#0000300000000000
(1522028465.767947) can0 299#0600000000000000
(1522028465.768196) can0 301#0300000000000000
(1522028465.769892) can0 264#0003848C02000176
(1522028465.772013) can0 010#06C2006200838159
(1522028465.775530) can0 121#0000000040000000
(1522028465.775777) can0 140#00000000800010EE
(1522028465.776012) can0 229#003B801300001A48
(1522028465.776252) can0 091#00007F137F090001
(1522028465.776489) can0 25C#F860000002151A48
(1522028465.780527) can0 050#8000880000000000
(1522028465.780768) can0 111#B000080000006000
(1522028465.781006) can0 113#00000500521B0000
(1522028465.781247) can0 115#4E0002040000015A
(1522028465.781479) can0 117#F935806080AE80A6
(1522028465.781723) can0 118#2215000060000000
(1522028465.781965) can0 119#4305000000000000
(1522028465.782204) can0 010#07AF00620083815C
(1522028465.782439) can0 122#7D7D3C2CF4000030
(1522028465.782686) can0 123#0000300000000000
(1522028465.782924) can0 14A#6BF868000005FFFF
(1522028465.783157) can0 170#804B805580508047
(1522028465.783400) can0 211#00A0000520000407
(1522028465.783641) can0 253#01FF020D7E020000
(1522028465.783872) can0 254#918F3F6A63AF0054
(1522028465.784104) can0 339#153F005BC643C1FD
(1522028465.789893) can0 264#0003948C0C008176
(1522028465.790149) can0 342#0027073F0E0039C5
(1522028465.790412) can0 344#A5A1B1A8459C0000
(1522028465.790681) can0 40A#C0003E11472F2839
(1522028465.790915) can0 262#080108013555A0CD
(1522028465.791165) can0 263#00000FFF00000FFE
(1522028465.791405) can0 346#F00F2B80FD000000
(1522028465.791653) can0 417#0002820000000000
(1522028465.791897) can0 441#C06A2A0000000000
(1522028465.792137) can0 010#08B000620072815C
(1522028465.792382) can0 494#B4A412000185055B
(1522028465.795539) can0 050#8000880000000000
(1522028465.795783) can0 111#B000080000006000
(1522028465.796024) can0 113#00000500521C0000
(1522028465.796253) can0 04B#D8D8D8D8D8D8C000
(1522028465.796493) can0 091#00007F167F0D0001
(1522028465.796731) can0 115#4E0002030000015B
(1522028465.796963) can0 117#F935805F80AE80AC
(1522028465.797210) can0 118#2218000060000000
(1522028465.797452) can0 119#4305000000000000
(1522028465.797702) can0 121#0000000040000000
(1522028465.797944) can0 122#7D7D3C2FF400003B
(1522028465.798193) can0 123#0000300000000000
(1522028465.798441) can0 140#0000000080001107
(1522028465.798680) can0 229#003B801300001A3F
(1522028465.798922) can0 25C#F860000002181A3F
(1522028465.799168) can0 299#0600000000000000
(1522028465.799416) can0 301#0300000000000000
(1522028465.799663) can0 340#191A80007F0FBFFF
(1522028465.799894) can0 444#014B606800009298
(1522028465.800875) can0 14A#6BF778000005FFFF
(1522028465.801106) can0 170#805880558058805A
(1522028465.801349) can0 211#00A0000520000407
(1522028465.801589) can0 253#0206020C7E02006B
(1522028465.801815) can0 254#918F1E6A73AF0065
(1522028465.802054) can0 010#099E00620072815E
(1522028465.805522) can0 339#153F005BC643C1FD
(1522028465.809896) can0 264#0003848C01007D76
(1522028465.810526) can0 050#8000880000000000
(1522028465.810769) can0 111#B000080000006000
(1522028465.811007) can0 113#00000500521E0000
(1522028465.811245) can0 115#4E0002030000015B
(1522028465.811477) can0 117#F935805F80BD80B8
(1522028465.811724) can0 118#2218000060000000
(1522028465.811965) can0 119#4305000000000000
(1522028465.812206) can0 010#0A9C006200628160
(1522028465.812446) can0 122#7D7D3C33F400003F
(1522028465.812694) can0 123#0000300000000000
(1522028465.815532) can0 121#0000000040000000
(1522028465.815775) can0 140#00000000800010B5
(1522028465.816012) can0 229#003B801300001A2B
(1522028465.816253) can0 091#00007F1A7F070001
(1522028465.816495) can0 25C#F860000002181A2B
(1522028465.819953) can0 342#0007073D0E0039C5
(1522028465.820204) can0 344#A5A1B1A8459C4000
(1522028465.820465) can0 350#002403DA42BF639C
(1522028465.820739) can0 400#0602010001010002
(1522028465.820977) can0 14A#6BF688010005FFFF
(1522028465.821210) can0 170#805880558058805A
(1522028465.821452) can0 211#00A0000520000407
(1522028465.821692) can0 253#0209020B7E02006F
(1522028465.821923) can0 254#918F096A83AF006A
(1522028465.822159) can0 010#0B7A00A300728162
(1522028465.822395) can0 262#080108013555A0CD
(1522028465.822642) can0 263#00000FFF00000FFE
(1522028465.822883) can0 346#FF002B80FD000000
(1522028465.823121) can0 405#02FF3800390039C5
(1522028465.823369) can0 417#0002820000000000
(1522028465.825665) can0 050#8000880000000000
(1522028465.825909) can0 111#B000080000006000
(1522028465.826146) can0 113#0000050052210000
(1522028465.826384) can0 115#4E0002030000015E
(1522028465.826616) can0 117#F935805F80BC80C5
(1522028465.826862) can0 118#221A000060000000
(1522028465.827104) can0 119#4305000000000000
(1522028465.827337) can0 122#7D7D3C38F400004A
(1522028465.827585) can0 123#0000300000000000
(1522028465.827831) can0 299#0600000000000000
(1522028465.828079) can0 301#0300000000000000
(1522028465.829887) can0 264#0003948C0C008176
(1522028465.830167) can0 494#B42412000185055B
(1522028465.830517) can0 339#153F005BC643C1FD
(1522028465.832010) can0 010#0C6700A300728165
(1522028465.835531) can0 121#0000000040000000
(1522028465.835773) can0 140#00000000800010DB
(1522028465.836013) can0 091#00007F137F0D0001
(1522028465.836251) can0 229#003B801300001A09
(1522028465.836493) can0 25C#F8600000021A1A09
(1522028465.840528) can0 050#8000880000000000
(1522028465.840768) can0 111#B000080000006000
(1522028465.841006) can0 113#0000050052240000
(1522028465.841246) can0 115#4E00020400000164
(1522028465.841480) can0 117#F935805F80CA80D5
(1522028465.841726) can0 118#221A000060000000
(1522028465.841969) can0 119#4305000000000000
(1522028465.842205) can0 010#0D6700A300628165
(1522028465.842441) can0 122#7D7D3C3EF4000050
(1522028465.842689) can0 123#0000300000000000
(1522028465.842930) can0 14A#6BF598000005FFFF
(1522028465.843169) can0 170#80588062805F805A
(1522028465.843411) can0 211#00A0000520000407
(1522028465.843650) can0 253#0209020B7E020071
(1522028465.843877) can0 254#918FF96A93AF006A
(1522028465.845533) can0 4EC#8922740000000000
(1522028465.849910) can0 264#0003848C00007D76
(1522028465.850153) can0 342#0027073F0E0039C5
(1522028465.850408) can0 344#85A1B1A8459C4000
(1522028465.850684) can0 441#C06A2A0000000000
(1522028465.850920) can0 262#080108013556A0CD
(1522028465.851171) can0 263#00000FFF00000FFE
(1522028465.851406) can0 346#FE012B80FD000000
(1522028465.851654) can0 417#0002820000000000
(1522028465.852084) can0 010#0E45006200728167
(1522028465.855561) can0 050#8000880000000000
(1522028465.855805) can0 111#B000080000006000
(1522028465.856047) can0 091#00007F057F0F0001
(1522028465.856285) can0 113#0000050052270000
(1522028465.856525) can0 115#4E00020400000164
(1522028465.856755) can0 117#F935805D80CA80E3
(1522028465.856997) can0 118#221D000060000000
(1522028465.857239) can0 119#4305000000000000
(1522028465.857489) can0 121#0000000040000000
(1522028465.857721) can0 122#7D7D3C42F4000057
(1522028465.857970) can0 123#0000300000000000
(1522028465.858214) can0 140#00000000800010A3
(1522028465.858454) can0 229#003B801300001A00
(1522028465.858696) can0 25C#F8600000021D1A00
(1522028465.858941) can0 299#0600000000000000
(1522028465.859192) can0 301#0300000000000000
(1522028465.859422) can0 339#153F005EC643C1FD
(1522028465.860910) can0 14A#6BF4A8010005FFFF
(1522028465.861135) can0 170#8064806280648064
(1522028465.861377) can0 211#00A0000520000407
(1522028465.861611) can0 253#0214020B7E01007A
(1522028465.861842) can0 254#918FDD6AA3AF0076
(1522028465.862085) can0 010#0F33006200728169
(1522028465.862324) can0 65A#00000007FD000000
(1522028465.865529) can0 444#014B657000009298
(1522028465.866019) can0 04A#00D8D8D8FED8D8D8
(1522028465.869889) can0 264#0003948C0E008176
(1522028465.870155) can0 494#B4A412000185055B
(1522028465.870526) can0 050#8000880000000000
(1522028465.870770) can0 111#B000080000006000
(1522028465.871009) can0 113#00000500522A0000
(1522028465.871252) can0 115#4E00020400000166
(1522028465.871482) can0 117#F935805D80DE80F0
(1522028465.871724) can0 118#221D000060000000
(1522028465.871966) can0 119#4305000000000000
(1522028465.872204) can0 010#002000A30072816C
(1522028465.872439) can0 122#7D7D3C47F400005A
(1522028465.872687) can0 123#0000300000000000
(1522028465.875561) can0 121#0000000040000000
(1522028465.875804) can0 140#00000000800010CD
(1522028465.876040) can0 229#003B8013000019EE
(1522028465.876283) can0 091#00007EFE7F0D0001
(1522028465.876523) can0 25C#F8600000021D19EE
(1522028465.879928) can0 342#0007077D0E0039C5
(1522028465.880163) can0 344#A5A1B1A8459C0000
(1522028465.880526) can0 339#153F005EC643C1FD
(1522028465.880866) can0 14A#6BF3B8010005FFFF
(1522028465.881098) can0 170#8064806280648064
(1522028465.881340) can0 211#00A0000520000407
(1522028465.881578) can0 253#0210020C7E02007D
(1522028465.881811) can0 254#918FC86AB3AF007B
(1522028465.882045) can0 262#080108013556A0CD
(1522028465.882284) can0 010#01FD00A30083816E
(1522028465.882532) can0 263#00000FFF00000FFE
(1522028465.882779) can0 346#FD022B80FD000000
(1522028465.883022) can0 417#0002820000000000
(1522028465.885627) can0 050#8000880000000000
(1522028465.885791) can0 111#B000080000006000
(1522028465.886025) can0 113#00000500522C0000
(1522028465.886269) can0 115#4E00020400000166
(1522028465.886507) can0 117#F935805C80DD80FD
(1522028465.886755) can0 118#2220000060000000
(1522028465.886989) can0 119#4305000000000000
(1522028465.887228) can0 122#7D7D3C4BF4000063
(1522028465.887499) can0 123#0000300000000000
(1522028465.887718) can0 299#0600000000000000
(1522028465.887964) can0 301#0300000000000000
(1522028465.889949) can0 264#0003848C00000176
(1522028465.890166) can0 350#002403DA42BFE39C
(1522028465.892065) can0 010#02EB00A300838170
(1522028465.895586) can0 121#0000000040000000
(1522028465.895774) can0 140#00000000800010B3
(1522028465.896010) can0 04B#D8D8D8D8D8D8C000
(1522028465.896251) can0 091#00007F017F090001
(1522028465.896502) can0 229#003B8013000019C0
(1522028465.896732) can0 25C#F8600000022119C0
(1522028465.896982) can0 340#191A80007F0FBFFF
(1522028465.897206) can0 454#3730333238343133
(1522028465.900577) can0 050#8000880000000000
(1522028465.900777) can0 111#B000080000006000
(1522028465.901014) can0 113#00000500522F0000
(1522028465.901248) can0 115#4E0002050000016B
(1522028465.901479) can0 117#F935805C80EF8109
(1522028465.901728) can0 118#2221000060000000
(1522028465.901967) can0 119#4305000000000000
(1522028465.902209) can0 010#03D900A300838172
(1522028465.902450) can0 122#7D7D3C4FF4000067
(1522028465.902696) can0 123#0000300000000000
(1522028465.902931) can0 14A#6BF2C8010005FFFF
(1522028465.903165) can0 170#80668069806B8069
(1522028465.903410) can0 211#00A0000520000407
(1522028465.903649) can0 253#0207020E7E02007D
(1522028465.903876) can0 254#918FB86AC3AF007B
(1522028465.905555) can0 339#153F005EC643C1FD
(1522028465.909943) can0 264#0003948C0D00FD76
(1522028465.910151) can0 342#0027073F0E0039C5
(1522028465.910408) can0 344#A5A1B1A8459C4000
(1522028465.910688) can0 40A#FF00110210000000
(1522028465.910919) can0 262#080108013656A1CE
(1522028465.911167) can0 263#00000FFF00000FFE
(1522028465.911409) can0 346#FC032B80FD000000
(1522028465.911656) can0 417#0002820000000000
(1522028465.911903) can0 441#C06A2A0000000000
(1522028465.912137) can0 010#04C600A300838175
(1522028465.912374) can0 494#B42412000185055B
(1522028465.915596) can0 050#8000880000000000
(1522028465.915786) can0 111#B000080000006000
(1522028465.916026) can0 113#0000050052300000
(1522028465.916265) can0 091#00007F0C7F0B0001
(1522028465.916525) can0 115#4E0002050000016B
(1522028465.916735) can0 117#F935805B80F08112
(1522028465.916980) can0 118#2225000060000000
(1522028465.917222) can0 119#4305000000000000
(1522028465.917478) can0 121#0000000040000000
(1522028465.917726) can0 122#7D7D3C52F400006D
(1522028465.917969) can0 123#0000300000000000
(1522028465.918205) can0 140#00000000800010D1
(1522028465.918448) can0 229#003B8013000019BF
(1522028465.918680) can0 25C#F8600000022519BF
(1522028465.918927) can0 299#0600000000000000
(1522028465.919184) can0 301#0300000000000000
(1522028465.920902) can0 14A#6BF1D8000005FFFF
(1522028465.921123) can0 170#806B8069806B806E
(1522028465.921365) can0 211#00A0000520000407
(1522028465.921600) can0 253#0212020E7E030085
(1522028465.921831) can0 254#918FA26AD3AF0081
(1522028465.922071) can0 010#05B400A300838177
(1522028465.929946) can0 264#0003848C00000176
(1522028465.930541) can0 050#8000880000000000
(1522028465.930778) can0 111#B000080000006000
(1522028465.931013) can0 113#0000050052320000
(1522028465.931251) can0 115#4E00020600000171
(1522028465.931484) can0 117#F935805781078119
(1522028465.931731) can0 118#2228000060000000
(1522028465.931972) can0 119#4305000000000000
(1522028465.932209) can0 010#069200A300938179
(1522028465.932461) can0 122#7D7D3C55F400006F
(1522028465.932700) can0 123#0000300000000000
(1522028465.932926) can0 339#153F005EC643C1FD
(1522028465.935584) can0 121#0000000040000000
(1522028465.935784) can0 140#00000000800010DD
(1522028465.936019) can0 229#003B80130000199A
(1522028465.936259) can0 091#00007F087F0D0001
(1522028465.936501) can0 25C#F86000000228199A
(1522028465.936738) can0 444#014B657000009298
(1522028465.939941) can0 342#0007073D0E0039C5
(1522028465.940156) can0 344#A5A1B1A8459C0000
(1522028465.940884) can0 14A#6BF0E8000005FFFF
(1522028465.941113) can0 170#806B806E806B806E
(1522028465.941356) can0 211#00A0000520000407
(1522028465.941590) can0 253#020A020E7E020086
(1522028465.941823) can0 254#918F926AE3AF0081
(1522028465.942054) can0 262#080108013656A1CE
(1522028465.942289) can0 010#079200A300838179
(1522028465.942535) can0 263#00000FFF00000FFE
(1522028465.942778) can0 346#FB042B80FD000000
(1522028465.943025) can0 417#0002820000000000
(1522028465.945566) can0 050#8000880000000000
(1522028465.945786) can0 111#B000080000006000
(1522028465.946021) can0 113#0000050052330000
(1522028465.946254) can0 115#4E00020600000171
(1522028465.946490) can0 117#F9358057811A811F
(1522028465.946732) can0 118#2228000060000000
(1522028465.946974) can0 119#4305000000000000
(1522028465.947211) can0 122#7D7D3C57F4000074
(1522028465.947461) can0 123#0000300000000000
(1522028465.947705) can0 299#0600000000000000
(1522028465.947953) can0 301#0300000000000000
(1522028465.948193) can0 4EC#8922740000000000
(1522028465.949924) can0 264#0003848C02007D76
(1522028465.950166) can0 494#B42412000185055B
(1522028465.952052) can0 010#088000620083817B
(1522028465.955537) can0 121#0000000040000000
(1522028465.955755) can0 140#00000000800010B8
(1522028465.955994) can0 091#00007F087F0F0001
(1522028465.956231) can0 229#003B801300001974
(1522028465.956471) can0 25C#F8600000022C1974
(1522028465.956706) can0 339#153F0062C643C1FD
(1522028465.959903) can0 350#002403DA42BF639C
(1522028465.960503) can0 050#8000880000000000
(1522028465.960747) can0 111#B000080000006000
(1522028465.960986) can0 113#0000050052340000
(1522028465.961229) can0 115#4E00020600000176
(1522028465.961459) can0 117#F9358052811C8123
(1522028465.961701) can0 118#222C000060000000
(1522028465.961943) can0 119#4305000000000000
(1522028465.962182) can0 010#096D00620083817E
(1522028465.962416) can0 122#7D7D3C59F4000076
(1522028465.962666) can0 123#0000300000000000
(1522028465.962912) can0 14A#6BEFF8010005FFFF
(1522028465.963139) can0 170#8075807380758075
(1522028465.963382) can0 211#00A0000520000407
(1522028465.963613) can0 253#0216020E7E02008E
(1522028465.963845) can0 254#918F7C6AF3AF0087
(1522028465.964091) can0 65A#00000007FD000000
(1522028465.966036) can0 04A#00D8D8D8FED8D8D8
(1522028465.969882) can0 264#0003948C0C008176
(1522028465.970131) can0 342#0027077F0E0039C5
(1522028465.970389) can0 344#85A1B1A8459C4000
(1522028465.970673) can0 441#C06A2A0000000000
(1522028465.970902) can0 262#080108013657A1CE
(1522028465.971146) can0 263#00000FFF00000FFE
(1522028465.971388) can0 346#FA052B80FD000000
(1522028465.971635) can0 417#0002820000000000
(1522028465.972087) can0 010#0A6E00620072817E
(1522028465.975535) can0 050#8000880000000000
(1522028465.975755) can0 111#B000080000006000
(1522028465.975995) can0 091#00007F137F110001
(1522028465.976236) can0 113#0000050052350000
(1522028465.976480) can0 115#4E0002080000017D
(1522028465.976713) can0 117#F935805281308127
(1522028465.976959) can0 118#222C000060000000
(1522028465.977201) can0 119#4305000000000000
(1522028465.977451) can0 121#0000000040000000
(1522028465.977689) can0 122#7D7D3C5AF400007A
(1522028465.977937) can0 123#0000300000000000
(1522028465.978182) can0 140#00000000800010B9
(1522028465.978430) can0 229#003B80130000196F
(1522028465.978685) can0 25C#F8600000022C196F
(1522028465.978918) can0 299#0600000000000000
(1522028465.979165) can0 301#0300000000000000
(1522028465.980491) can0 339#153F0062C643C1FD
(1522028465.980854) can0 14A#6BFE08010005FFFF
(1522028465.981086) can0 170#8075807380758077
(1522028465.981327) can0 211#00A0000520000407
(1522028465.981562) can0 253#0212020D7E020092
(1522028465.981792) can0 254#918F676A03AF008C
(1522028465.982031) can0 010#0B6E00620062817E
(1522028465.989895) can0 264#0003848C00000176
(1522028465.990137) can0 494#B4A412000185055B
(1522028465.990508) can0 050#8000880000000000
(1522028465.990754) can0 111#B000080000006000
(1522028465.990992) can0 113#0000050052350000
(1522028465.991236) can0 115#4E0002080000017D
(1522028465.991468) can0 117#F93580498130812B
(1522028465.991717) can0 118#2230000060000000
(1522028465.991958) can0 119#4305000000000000
(1522028465.992198) can0 010#0C5C003100628180
(1522028465.992435) can0 122#7D7D3C5CF400007C
(1522028465.992683) can0 123#0000300000000000
(1522028465.995539) can0 121#0000000040000000
(1522028465.995754) can0 140#00000000800010AE
(1522028465.995991) can0 229#003B801300001954
(1522028465.996221) can0 04B#D8D8D8D8D8D8C000
(1522028465.996463) can0 091#00007F137F130001
(1522028465.996705) can0 25C#F860000002301954
(1522028465.996945) can0 340#191A80007F0FBFFF
(1522028465.999929) can0 342#0027073F0E0039C5
(1522028466.000192) can0 344#A5A1B1A8459C4000
(1522028466.000859) can0 14A#6BFD18020005FFFF
(1522028466.001095) can0 170#807A807C807A807A
(1522028466.001338) can0 211#00A0000520000407
(1522028466.001583) can0 253#020D020F7E020094
(1522028466.001806) can0 254#918F576A13AF008C
(1522028466.002032) can0 262#080208023757A2CF
(1522028466.002270) can0 010#0D5D003100518180
(1522028466.002518) can0 263#00000FFF00000FFE
(1522028466.002773) can0 346#F9062B80FD000000
(1522028466.003010) can0 417#0002820000000000
(1522028466.005589) can0 050#8000880000000000
(1522028466.005768) can0 111#B000080000006000
(1522028466.005997) can0 113#0000050052360000
(1522028466.006235) can0 115#4E00020A00000186
(1522028466.006464) can0 117#F93580498146812D
(1522028466.006716) can0 118#2230000060000000
(1522028466.006959) can0 119#4305000000000000
(1522028466.007196) can0 122#7D7D3C5DF4000081
(1522028466.007445) can0 123#0000300000000000
(1522028466.007689) can0 299#0600000000000000
(1522028466.007940) can0 301#0300000000000000
(1522028466.008170) can0 339#153F0062C643C1FD
(1522028466.008407) can0 444#014B6A7800009298
(1522028466.009889) can0 264#0003948C0D00FD76
(1522028466.012043) can0 010#0E5D003100418180
(1522028466.015531) can0 121#0000000040000000
(1522028466.015752) can0 140#00000000800010B6
(1522028466.015993) can0 091#00007F167F130001
(1522028466.016229) can0 229#003B801300001945
(1522028466.016469) can0 25C#F860000002341945
(1522028466.020531) can0 050#8000880000000000
(1522028466.020743) can0 111#B000080000006000
(1522028466.020980) can0 113#0000050052360000
(1522028466.021217) can0 115#4E00020A00000186
(1522028466.021449) can0 117#F935803E8148812D
(1522028466.021695) can0 118#2234000060000000
(1522028466.021936) can0 119#4305000000000000
(1522028466.022176) can0 010#0F4B003100418182
(1522028466.022414) can0 122#7D7D3C5DF4000083
(1522028466.022663) can0 123#0000300000000000
(1522028466.022902) can0 14A#6BFC28020005FFFF
(1522028466.023143) can0 170#807F807C807C807F
(1522028466.023385) can0 211#00A0000520000407
(1522028466.023619) can0 253#021702107E02009D
(1522028466.023847) can0 254#918F3C6A23AF0097
(1522028466.029910) can0 264#0003848C02000176
(1522028466.030131) can0 342#0007073D0E0039C5
(1522028466.030417) can0 344#A5A1B1A8459C0000
(1522028466.030649) can0 339#153F0062C643C1FD
(1522028466.030878) can0 262#080208023757A2CF
(1522028466.031127) can0 263#00000FFF00000FFE
(1522028466.031365) can0 346#F8072B80FD000000
(1522028466.031597) can0 350#002403DA42BFE39C
(1522028466.031845) can0 417#0002820000000000
(1522028466.032087) can0 010#003B003100418182
(1522028466.032331) can0 40A#FF01248400044000
(1522028466.032614) can0 441#C06A2A0000000000
(1522028466.032881) can0 494#B42412000185055B
(1522028466.035523) can0 050#8000880000000000
(1522028466.035769) can0 111#B000080000006000
(1522028466.036003) can0 113#0000050052360000
(1522028466.036244) can0 091#00007F167F150001
(1522028466.036490) can0 115#4E00020B0000018E
(1522028466.036705) can0 117#F9358035815E812D
(1522028466.036954) can0 118#2237000060000000
(1522028466.037196) can0 119#4305000000000000
(1522028466.037447) can0 121#0000000040000000
(1522028466.037677) can0 122#7D7D3C5EF4000087
(1522028466.037926) can0 123#0000300000000000
(1522028466.038170) can0 140#00000000800010C9
(1522028466.038412) can0 229#003B801300001941
(1522028466.038652) can0 25C#F860000002371941
(1522028466.038899) can0 299#0600000000000000
(1522028466.039146) can0 301#0300000000000000
(1522028466.040837) can0 14A#6BFB38020005FFFF
(1522028466.041064) can0 170#807F80828082807F
(1522028466.041306) can0 211#00A0000520000407
(1522028466.041542) can0 253#020E02117E02009F
(1522028466.041767) can0 254#918F2C6A33AF0097
(1522028466.042059) can0 010#013B003100318182
(1522028466.045506) can0 4EC#8922740000000000
(1522028466.049877) can0 264#0003948C0C00FD76
(1522028466.050504) can0 050#8000880000000000
(1522028466.050751) can0 111#B000080000006000
(1522028466.050990) can0 113#0000050052360000
(1522028466.051231) can0 115#4E00020C00000197
(1522028466.051462) can0 117#F9358035816E812E
(1522028466.051709) can0 118#2236000060000000
(1522028466.051948) can0 119#4305000000000000
(1522028466.052190) can0 010#023C003100208182
(1522028466.052424) can0 122#7D7D3C5EF400008A
(1522028466.052673) can0 123#0000300000000000
(1522028466.055507) can0 121#0000000040000000
(1522028466.055753) can0 140#00000000800010A9
(1522028466.055991) can0 229#003B801300001927
(1522028466.056231) can0 091#00007F137F150001
(1522028466.056472) can0 25C#F860000002361927
(1522028466.056703) can0 339#153F0065C643C1FD
(1522028466.059888) can0 342#0027077F0E0039C5
(1522028466.060136) can0 344#A5A1B1A8459C4000
(1522028466.060870) can0 14A#6BFA48030005FFFF
(1522028466.061102) can0 170#8086808480868089
(1522028466.061344) can0 211#00A0000520000407
(1522028466.061584) can0 253#021002117E0300A3
(1522028466.061816) can0 254#918F106A43AF00A3
(1522028466.062044) can0 262#080208023758A2CF
(1522028466.062283) can0 010#0318003100318185
(1522028466.062531) can0 263#00000FFF00000FFE
(1522028466.062770) can0 346#F7082B80FD000000
(1522028466.063018) can0 417#0002820000000000
(1522028466.063264) can0 65A#00000007FD000000
(1522028466.065548) can0 050#8000880000000000
(1522028466.065758) can0 111#B000080000006000
(1522028466.065989) can0 04A#00D8D8D8FED8D8D8
(1522028466.066229) can0 113#0000050052370000
(1522028466.066469) can0 115#4E00020C00000197
(1522028466.066701) can0 117#F935802B816C8130
(1522028466.066948) can0 118#2238000060000000
(1522028466.067193) can0 119#4305000000000000
(1522028466.067424) can0 122#7D7D3C5FF400008E
(1522028466.067672) can0 123#0000300000000000
(1522028466.067919) can0 299#0600000000000000
(1522028466.068166) can0 301#0300000000000000
(1522028466.068417) can0 581#0000FFFFFFFFFFFF
(1522028466.069876) can0 264#0003848C00000176
(1522028466.070143) can0 400#0707010100010000
(1522028466.070423) can0 405#0000000000000000
(1522028466.070693) can0 494#B4A412000185055B
(1522028466.072016) can0 010#0408003100318185
(1522028466.075510) can0 121#0000000040000000
(1522028466.075756) can0 140#00000000800010B0
(1522028466.075998) can0 091#00007F137F130001
(1522028466.076238) can0 229#003B801300001903
(1522028466.076480) can0 25C#F860000002381903
(1522028466.076718) can0 444#014B718300009298
(1522028466.080506) can0 050#8000880000000000
(1522028466.080750) can0 111#B000080000006000
(1522028466.080995) can0 113#0000050052370000
(1522028466.081225) can0 115#4E00020D000001A1
(1522028466.081456) can0 117#F935802981728132
(1522028466.081700) can0 118#2238000060000000
(1522028466.081941) can0 119#4305000000000000
(1522028466.082180) can0 010#0509003100208185
(1522028466.082418) can0 122#7D7D3C60F4000091
(1522028466.082666) can0 123#0000300000000000
(1522028466.082904) can0 14A#6BF958030005FFFF
(1522028466.083140) can0 170#80868089808B8089
(1522028466.083383) can0 211#00A0000520000407
(1522028466.083621) can0 253#020E02107E0200A7
(1522028466.083849) can0 254#918F006A53AF00A3
(1522028466.084081) can0 339#153F0065C643C1FD
(1522028466.089883) can0 264#0003848C00000176
(1522028466.090132) can0 342#0007073D0E0039C5
(1522028466.090388) can0 344#85A1B1A8459C0000
(1522028466.090673) can0 441#C06A2A0000000000
(1522028466.090902) can0 262#080208023858A3D0
(1522028466.091151) can0 263#00000FFF00000FFE
(1522028466.091389) can0 346#F6092B80FD000000
(1522028466.091637) can0 417#0002820000000000
(1522028466.092066) can0 010#06E6003100318187
(1522028466.095511) can0 050#8000880000000000
(1522028466.095756) can0 111#B000080000006000
(1522028466.095985) can0 04B#D8D8D8D8D8D8C000
(1522028466.096231) can0 091#00007F167F0F0001
(1522028466.096470) can0 113#0000050052370000
(1522028466.096708) can0 115#4E00020D000001A1
(1522028466.096943) can0 117#F935801F81728132
(1522028466.097187) can0 118#223A000060000000
(1522028466.097428) can0 119#4305000000000000
(1522028466.097678) can0 121#0000000040000000
(1522028466.097917) can0 122#7D7D3C60F4000096
(1522028466.098165) can0 123#0000300000000000
(1522028466.098409) can0 140#000000008000109D
(1522028466.098650) can0 229#003B8013000018FB
(1522028466.098890) can0 25C#F8600000023A18FB
(1522028466.099136) can0 299#0600000000000000
(1522028466.099384) can0 301#0300000000000000
(1522028466.099628) can0 340#191A80007F0FBFFF
(1522028466.099958) can0 350#000003DA42BF639C
(1522028466.100834) can0 14A#6BF868020005FFFF
(1522028466.101069) can0 170#8090808E80908093
(1522028466.101310) can0 211#00A0000520000407
(1522028466.101545) can0 253#021502117E0200AF
(1522028466.101772) can0 254#918FE56A63AF00AE
(1522028466.102055) can0 010#07D6003100318187
(1522028466.105528) can0 339#153F0065C643C1FD
(1522028466.109884) can0 264#0003948C0F00FD76
(1522028466.110136) can0 494#B42412000185055B
(1522028466.110503) can0 050#8000880000000000
(1522028466.110746) can0 111#B000080000006000
(1522028466.110987) can0 113#0000050052370000
(1522028466.111227) can0 115#4E00020D000001A8
(1522028466.111461) can0 117#F9358014817E8134
(1522028466.111706) can0 118#223A000060000000
(1522028466.111947) can0 119#4305000000000000
(1522028466.112185) can0 010#08C4006200318189
(1522028466.112419) can0 122#7D7D3C61F4000098
(1522028466.112668) can0 123#0000300000000000
(1522028466.115507) can0 121#0000000040000000
(1522028466.115751) can0 140#0000000080001085
(1522028466.115990) can0 091#00007F167F110001
(1522028466.116227) can0 229#003B8013000018E9
(1522028466.116465) can0 25C#F8600000023A18E9
(1522028466.119878) can0 342#0027073F0E0039C5
(1522028466.120133) can0 344#A5A1B1A8459C4000
(1522028466.120832) can0 14A#6BF778010005FFFF
(1522028466.121064) can0 170#8090809080958093
(1522028466.121306) can0 211#00A0000520000407
(1522028466.121538) can0 253#021302117E0100B4
(1522028466.121768) can0 254#918FD56A73AF00AE
(1522028466.122002) can0 262#080208023859A3D0
(1522028466.122240) can0 010#09B4006200318189
(1522028466.122488) can0 263#00000FFF00000FFE
(1522028466.122724) can0 346#F50A2B80FD000000
(1522028466.122973) can0 417#0002820000000000
(1522028466.125511) can0 050#8000880000000000
(1522028466.125755) can0 111#B000080000006000
(1522028466.125995) can0 113#0000050052380000
(1522028466.126234) can0 115#4E00020D000001AF
(1522028466.126466) can0 117#F9358013817B8139
(1522028466.126711) can0 118#223A000060000000
(1522028466.126953) can0 119#4305000000000000
(1522028466.127187) can0 122#7D7D3C62F400009F
(1522028466.127434) can0 123#0000300000000000
(1522028466.127681) can0 299#0600000000000000
(1522028466.127929) can0 301#0300000000000000
(1522028466.129874) can0 264#0003848C00000176
(1522028466.130490) can0 339#153F0065C643C1FD
(1522028466.132020) can0 010#0A9200620041818B
(1522028466.135504) can0 121#0000000040000000
(1522028466.135750) can0 140#00000000800010A7
(1522028466.135992) can0 091#00007F137F130001
(1522028466.136228) can0 229#003B8013000018D8
(1522028466.136466) can0 25C#F8600000023A18D8
(1522028466.140504) can0 050#8000880000000000
(1522028466.140744) can0 111#B000080000006000
(1522028466.140987) can0 113#0000050052390000
(1522028466.141225) can0 115#4E00020D000001AF
(1522028466.141463) can0 117#F935800B8180813E
(1522028466.141708) can0 118#223A000060000000
(1522028466.141950) can0 119#4305000000000000
(1522028466.142194) can0 010#0B8200620041818B
(1522028466.142430) can0 122#7D7D3C63F40000A1
(1522028466.142679) can0 123#0000300000000000
(1522028466.142916) can0 14A#6BF688020005FFFF
(1522028466.143150) can0 170#80978095809A809D
(1522028466.143392) can0 211#00A0000520000407
(1522028466.143627) can0 253#021402127E0100B9
(1522028466.143857) can0 254#918FBA6A83AF00B9
(1522028466.145499) can0 444#014B776C00009298
(1522028466.145739) can0 4EC#8922740000000000
(1522028466.149890) can0 264#0003948C0C00FD76
(1522028466.150153) can0 342#0027073F0E0039C5
(1522028466.150409) can0 344#A5A1B1A8459C4000
(1522028466.150677) can0 40A#FF02102402108880
(1522028466.150911) can0 262#080208023859A3D0
(1522028466.151159) can0 263#00000FFF00000FFE
(1522028466.151397) can0 346#F40B2B80FD000000
(1522028466.151645) can0 417#0002820000000000
(1522028466.151889) can0 441#C06A2A0000000000
(1522028466.152129) can0 010#0C6F00620041818E
(1522028466.152365) can0 494#B42412000185055B
(1522028466.155512) can0 050#8000880000000000
(1522028466.155756) can0 111#B000080000006000
(1522028466.155996) can0 091#00007F137F110001
(1522028466.156235) can0 113#00000500523A0000
(1522028466.156474) can0 115#4E00020D000001B8
(1522028466.156714) can0 117#F9357FFF817B8144
(1522028466.156958) can0 118#223A000060000000
(1522028466.157200) can0 119#4305000000000000
(1522028466.157450) can0 121#0000000040000000
(1522028466.157686) can0 122#7D7D3C65F40000A7
(1522028466.157933) can0 123#0000300000000000
(1522028466.158178) can0 140#0000000080001090
(1522028466.158416) can0 229#003B8013000018CC
(1522028466.158654) can0 25C#F8600000023A18CC
(1522028466.158900) can0 299#0600000000000000
(1522028466.159148) can0 301#0300000000000000
(1522028466.159380) can0 339#153F0069C643C1FD
(1522028466.160824) can0 14A#6BF598020005FFFF
(1522028466.161056) can0 170#8097809A809D809D
(1522028466.161297) can0 211#00A0000520000407
(1522028466.161534) can0 253#021002147E0100BD
(1522028466.161763) can0 254#918FAA6A93AF00B9
(1522028466.162007) can0 65A#00000007FD000000
(1522028466.162242) can0 010#0D4D006200518190
(1522028466.165899) can0 04A#00D8D8D8FED8D8D8
(1522028466.169924) can0 264#0003848C00000176
(1522028466.170137) can0 350#002403DA42BF639C
(1522028466.170502) can0 050#8000880000000000
(1522028466.170752) can0 111#B000080000006000
(1522028466.171008) can0 113#00000500523C0000
(1522028466.171248) can0 115#4E00020C000001BD
(1522028466.171467) can0 117#F9357FFC817B814A
(1522028466.171715) can0 118#223A000060000000
(1522028466.171960) can0 119#4305000000000000
(1522028466.172189) can0 010#0E3D006200518190
(1522028466.172419) can0 122#7D7D3C67F40000AA
(1522028466.172666) can0 123#0000300000000000
(1522028466.175549) can0 121#0000000040000000
(1522028466.175761) can0 140#0000000080001074
(1522028466.175996) can0 091#00007F1A7F160001
(1522028466.176233) can0 229#003B8013000018C1
(1522028466.176478) can0 25C#F8600000023A18C1
(1522028466.179958) can0 342#0007077D0E0039C5
(1522028466.180190) can0 344#A5A1B1A8459C0000
(1522028466.180490) can0 339#153F0069C643C1FD
(1522028466.180829) can0 14A#6BF4A8020005FFFF
(1522028466.181062) can0 170#80A1809F80A180A4
(1522028466.181304) can0 211#00A0000520000407
(1522028466.181537) can0 253#021602167E0200C4
(1522028466.181765) can0 254#918F8F6AA3AF00C4
(1522028466.181995) can0 262#080208023959A4D1
(1522028466.182231) can0 010#0F2B006200518192
(1522028466.182479) can0 263#00000FFF00000FFE
(1522028466.182714) can0 346#F30C2B80FD000000
(1522028466.182962) can0 417#0002820000000000
(1522028466.185514) can0 050#8000880000000000
(1522028466.185758) can0 111#B000080000006000
(1522028466.185999) can0 113#00000500523D0000
(1522028466.186239) can0 115#4E00020C000001BD
(1522028466.186473) can0 117#F9357FF8817B8150
(1522028466.186719) can0 118#223B000060000000
(1522028466.186962) can0 119#4305000000000000
(1522028466.187193) can0 122#7D7D3C68F40000AE
(1522028466.187442) can0 123#0000300000000000
(1522028466.187688) can0 299#0600000000000000
(1522028466.187936) can0 301#0300000000000000
(1522028466.189883) can0 264#0003948C0C008176
(1522028466.190150) can0 494#B4A412000185055B
(1522028466.191996) can0 010#001B006200518192
(1522028466.195501) can0 121#0000000040000000
(1522028466.195745) can0 140#0000000080001088
(1522028466.195975) can0 04B#D8D8D8D8D8D8C000
(1522028466.196218) can0 091#00007F247F160001
(1522028466.196454) can0 229#003B8013000018B3
(1522028466.196692) can0 25C#F8600000023B18B3
(1522028466.196931) can0 340#191A80007F0FBFFF
(1522028466.200510) can0 050#8000880000000000
(1522028466.200752) can0 111#B000080000006000
(1522028466.200994) can0 113#00000500523E0000
(1522028466.201247) can0 115#4E00020C000001C5
(1522028466.201475) can0 117#F9357FEE81838156
(1522028466.201721) can0 118#223B000060000000
(1522028466.201964) can0 119#4305000000000000
(1522028466.202206) can0 010#0108006200518195
(1522028466.202438) can0 122#7D7D3C6AF40000B2
(1522028466.202686) can0 123#0000300000000000
(1522028466.202923) can0 14A#6BF3B8040005FFFF
(1522028466.203157) can0 170#80A180A680A980A9
(1522028466.203400) can0 211#00A0000520000407
(1522028466.203632) can0 253#021402167E0200C9
(1522028466.203860) can0 254#918F796AB3AF00CA
(1522028466.205508) can0 339#153F0069C643C1FD
(1522028466.209869) can0 264#0003848C03007D76
(1522028466.210131) can0 342#0027073F0E0039C5
(1522028466.210385) can0 344#85A1B1A8459C4000
(1522028466.210665) can0 441#C06A2A0000000000
(1522028466.210895) can0 262#08020802395AA4D1
(1522028466.211143) can0 263#00000FFF00000FFE
(1522028466.211382) can0 346#F20D2B80FD000000
(1522028466.211630) can0 417#0002820000000000
(1522028466.212068) can0 010#02F8006200518195
(1522028466.215507) can0 050#8000880000000000
(1522028466.215751) can0 111#B000080000006000
(1522028466.215993) can0 091#00007F247F190001
(1522028466.216232) can0 113#00000500523F0000
(1522028466.216473) can0 115#4E00020D000001CD
(1522028466.216708) can0 117#F9357FED81838159
(1522028466.216951) can0 118#223C000060000000
(1522028466.217193) can0 119#4305000000000000
(1522028466.217444) can0 121#0000000040000000
(1522028466.217680) can0 122#7D7D3C6BF40000B8
(1522028466.217928) can0 123#0000300000000000
(1522028466.218172) can0 140#00000000800010AA
(1522028466.218408) can0 229#003B8013000018B0
(1522028466.218651) can0 25C#F8600000023C18B0
(1522028466.218897) can0 299#0600000000000000
(1522028466.219145) can0 301#0300000000000000
(1522028466.219379) can0 444#014B776C00009298
(1522028466.220843) can0 14A#6BF2C8040005FFFF
(1522028466.221069) can0 170#80AB80A980AB80AE
(1522028466.221311) can0 211#00A0000520000407
(1522028466.221546) can0 253#021902167E0200D0
(1522028466.221772) can0 254#918F636AC3AF00D0
(1522028466.222052) can0 010#03E6006200518197
(1522028466.229871) can0 264#0003948C0C008176
(1522028466.230139) can0 494#B42412000185055B
(1522028466.230503) can0 050#8000880000000000
(1522028466.230747) can0 111#B000080000006000
(1522028466.230987) can0 113#00000500523F0000
(1522028466.231228) can0 115#4E00020D000001CD
(1522028466.231461) can0 117#F9357FE48186815C
(1522028466.231705) can0 118#223D000060000000
(1522028466.231946) can0 119#4305000000000000
(1522028466.232182) can0 010#04C3006200628199
(1522028466.232418) can0 122#7D7D3C6BF40000BB
(1522028466.232667) can0 123#0000300000000000
(1522028466.232899) can0 339#153F0069C643C1FD
(1522028466.235503) can0 121#0000000040000000
(1522028466.235747) can0 140#00000000800010A5
(1522028466.235988) can0 091#00007F167F160001
(1522028466.236224) can0 229#003B8013000018A4
(1522028466.236464) can0 25C#F8600000023D18A4
(1522028466.239882) can0 342#0027073F0E0039C5
(1522028466.240142) can0 344#A5A1B1A8459C0000
(1522028466.240402) can0 350#002403DA42BFE39C
(1522028466.240815) can0 14A#6BF1D8040005FFFF
(1522028466.241047) can0 170#80B280B080B580B5
(1522028466.241289) can0 211#00A0000520000407
(1522028466.241521) can0 253#021502157E0200D5
(1522028466.241749) can0 254#918F4E6AD3AF00D5
(1522028466.241979) can0 262#080308033A5AA5D2
(1522028466.242222) can0 010#05C4006200518199
(1522028466.242471) can0 263#00000FFF00000FFE
(1522028466.242709) can0 346#F10E2B80FD000000
(1522028466.242957) can0 417#0002820000000000
(1522028466.245512) can0 050#8000880000000000
(1522028466.245756) can0 111#B000080000006000
(1522028466.246001) can0 113#0000050052400000
(1522028466.246239) can0 115#4E00020B000001D1
(1522028466.246472) can0 117#F9357FDE8188815F
(1522028466.246720) can0 118#223E000060000000
(1522028466.246962) can0 119#4305000000000000
(1522028466.247197) can0 122#7D7D3C6CF40000C1
(1522028466.247446) can0 123#0000300000000000
(1522028466.247693) can0 299#0600000000000000
(1522028466.247943) can0 301#0400000000000000
(1522028466.248182) can0 4EC#8922740000000000
(1522028466.249873) can0 264#0003848C00007D76
(1522028466.251996) can0 010#06B200620051819B
(1522028466.255501) can0 121#0000000040000000
(1522028466.255751) can0 140#0000000080001095
(1522028466.255991) can0 091#00007F1A7F130001
(1522028466.256228) can0 229#003B801300001872
(1522028466.256471) can0 25C#F8600000023E1872
(1522028466.256702) can0 339#153F006EC643C1FD
(1522028466.260498) can0 050#8000880000000000
(1522028466.260740) can0 111#B000080000006000
(1522028466.260985) can0 113#0000050052400000
(1522028466.261226) can0 115#4E00020B000001D6
(1522028466.261455) can0 117#F9357FD7818B815E
(1522028466.261707) can0 118#223E000060000000
(1522028466.261947) can0 119#4305000000000000
(1522028466.262186) can0 010#078E00620062819E
(1522028466.262420) can0 122#7D7D3C6CF40000C4
(1522028466.262668) can0 123#0000300000000000
(1522028466.262906) can0 14A#6BF0E8040005FFFF
(1522028466.263140) can0 170#80B580B080B580B7
(1522028466.263382) can0 211#00A0000520000407
(1522028466.263618) can0 253#021E02157E0300DF
(1522028466.263846) can0 254#918F386AE3AF00DB
(1522028466.264091) can0 65A#00000007FD000000
(1522028466.265938) can0 04A#00D8D8D8FED8D8D8
(1522028466.269872) can0 264#0003948C0C008176
(1522028466.270131) can0 342#0007077D8E0039C5
(1522028466.270387) can0 344#A5A1B1A8459C4000
(1522028466.270661) can0 40A#FF030A0101102080
(1522028466.270889) can0 262#080308033A5BA5D2
(1522028466.271137) can0 263#00000FFF00000FFE
(1522028466.271378) can0 346#F00F2B80FD000000
(1522028466.271626) can0 417#0002820000000000
(1522028466.271870) can0 441#C06A2A0000000000
(1522028466.272106) can0 010#088F00620051819E
(1522028466.272342) can0 494#B4A412000185055B
(1522028466.275510) can0 050#8000880000000000
(1522028466.275754) can0 111#B000080000006000
(1522028466.275995) can0 091#00007F1A7F160001
(1522028466.276239) can0 113#0000050052400000
(1522028466.276480) can0 115#4E00020B000001DE
(1522028466.276712) can0 117#F9357FD7818A815E
(1522028466.276955) can0 118#223F000060000000
(1522028466.277198) can0 119#4305000000000000
(1522028466.277448) can0 121#0000000040000000
(1522028466.277682) can0 122#7D7D3C6CF40000CA
(1522028466.277930) can0 123#0000300000000000
(1522028466.278174) can0 140#0000000080001087
(1522028466.278411) can0 229#003B801300001866
(1522028466.278651) can0 25C#F8600000023F1866
(1522028466.278897) can0 299#0600000000000000
(1522028466.279147) can0 301#0400000000000000
(1522028466.280488) can0 339#153F006EC643C1FD
(1522028466.280855) can0 14A#6BEFF8020005FFFF
(1522028466.281089) can0 170#80BC80BA80BC80C1
(1522028466.281330) can0 211#00A0000520000407
(1522028466.281564) can0 253#021802177E0300E4
(1522028466.281790) can0 254#918F1D6AF3AF00E6
(1522028466.282031) can0 010#096C0062006281A0
(1522028466.285505) can0 444#014A7D6C00009298
(1522028466.289876) can0 264#0003848C02000176
(1522028466.290497) can0 050#8000880000000000
(1522028466.290742) can0 111#B000080000006000
(1522028466.290986) can0 113#0000050052400000
(1522028466.291228) can0 115#4E00020B000001DE
(1522028466.291459) can0 117#F9357FCE8190815F
(1522028466.291703) can0 118#223F000060000000
(1522028466.291945) can0 119#4305000000000000
(1522028466.292185) can0 010#0A5A0062006281A2
(1522028466.292417) can0 122#7D7D3C6CF40000CD
(1522028466.292665) can0 123#0000300000000000
(1522028466.295501) can0 121#0000000040000000
(1522028466.295746) can0 140#000000008000108B
(1522028466.295976) can0 04B#D8D8D8D8D8D8C000
(1522028466.296216) can0 091#00007F167F150001
(1522028466.296452) can0 229#003B801300001853
(1522028466.296694) can0 25C#F8600000023F1853
(1522028466.296934) can0 340#191A80007F0FBFFF
(1522028466.299911) can0 342#0027073F0E0039C5
(1522028466.300165) can0 344#A5A1B1A8459C4000
(1522028466.300825) can0 14A#6BFE08040005FFFF
(1522028466.301061) can0 170#80C180C180C480C4
(1522028466.301303) can0 211#00A0000520000407
(1522028466.301538) can0 253#021502197E0300EA
(1522028466.301770) can0 254#918F076A03AF00EC
(1522028466.301998) can0 262#080308033B5BA6D3
(1522028466.302236) can0 010#0B3800A3007281A4
(1522028466.302484) can0 263#00000FFF00000FFE
(1522028466.302725) can0 346#FF002B80FD000000
(1522028466.302972) can0 417#0002820000000000
(1522028466.305510) can0 050#8000880000000000
(1522028466.305753) can0 111#B000080000006000
(1522028466.305997) can0 113#0000050052400000
(1522028466.306235) can0 115#4E00020A000001E1
(1522028466.306470) can0 117#F9357FCA81908160
(1522028466.306716) can0 118#2240000060000000
(1522028466.306958) can0 119#4305000000000000
(1522028466.307190) can0 122#7D7D3C6CF40000D4
(1522028466.307438) can0 123#0000300000000000
(1522028466.307685) can0 299#0600000000000000
(1522028466.307934) can0 301#0400000000000000
(1522028466.308167) can0 339#153F006EC643C1FD
(1522028466.309871) can0 264#0003848C01007D76
(1522028466.310136) can0 350#002403DA42BF639C
(1522028466.310404) can0 494#B42412000185055B
(1522028466.311994) can0 010#0C3800A3006281A4
(1522028466.315506) can0 121#0000000040000000
(1522028466.315752) can0 140#0000000080001080
(1522028466.315992) can0 091#00007F1A7F190001
(1522028466.316231) can0 229#003B801300001830
(1522028466.316474) can0 25C#F860000002401830
(1522028466.319924) can0 400#0800370000010001
(1522028466.320170) can0 405#1000000000314654
(1522028466.320497) can0 050#8000880000000000
(1522028466.320741) can0 111#B000080000006000
(1522028466.320986) can0 113#0000050052400000
(1522028466.321223) can0 115#4E000209000001E5
(1522028466.321457) can0 117#F9357FC981928160
(1522028466.321703) can0 118#2240000060000000
(1522028466.321946) can0 119#4305000000000000
(1522028466.322182) can0 010#0D250062006281A7
(1522028466.322420) can0 122#7D7D3C6CF40000D8
(1522028466.322668) can0 123#0000300000000000
(1522028466.322906) can0 14A#6BFD18030005FFFF
(1522028466.323139) can0 170#80C680C480C680C9
(1522028466.323381) can0 211#00A0000520000407
(1522028466.323613) can0 253#021E021B7E0300F4
(1522028466.323844) can0 254#918FF26A13AF00F1
(1522028466.329875) can0 264#0003948C0C008176
(1522028466.330138) can0 342#0007073D0E0039C5
(1522028466.330396) can0 344#85A1B1A8459C0000
(1522028466.330627) can0 339#153F006EC643C1FD
(1522028466.330855) can0 262#080308033B5CA6D3
(1522028466.331104) can0 263#00000FFF00000FFE
(1522028466.331343) can0 346#FE012B80FD000000
(1522028466.331589) can0 417#0002820000000000
(1522028466.331833) can0 441#C06A2A0000000000
(1522028466.332073) can0 010#0E030062007281A9
(1522028466.335516) can0 050#8000880000000000
(1522028466.335749) can0 111#B000080000006000
(1522028466.335991) can0 091#00007F167F1B0001
(1522028466.336236) can0 113#0000050052400000
(1522028466.336475) can0 115#4E000209000001EB
(1522028466.336708) can0 117#F9357FC68192815F
(1522028466.336955) can0 118#2240000060000000
(1522028466.337196) can0 119#4305000000000000
(1522028466.337446) can0 121#0000000040000000
(1522028466.337680) can0 122#7D7D3C6CF40000DF
(1522028466.337928) can0 123#0000300000000000
(1522028466.338177) can0 140#000000008000107C
(1522028466.338417) can0 229#003B801300001826
(1522028466.338659) can0 25C#F860000002401826
(1522028466.338906) can0 299#0600000000000000
(1522028466.339156) can0 301#0400000000000000
(1522028466.340857) can0 14A#6BFC28040005FFFF
(1522028466.341088) can0 170#80D080CD80D080D2
(1522028466.341331) can0 211#00A0000520000407
(1522028466.341565) can0 253#0222021A7E0300FE
(1522028466.341795) can0 254#918FD66A23AF00FD
(1522028466.342033) can0 010#0F030062006281A9
(1522028466.345503) can0 4EC#8922740000000000
(1522028466.349875) can0 264#0003848C00007D76
(1522028466.350142) can0 494#B42412000185055B
(1522028466.350506) can0 050#8000880000000000
(1522028466.350750) can0 111#B000080000006000
(1522028466.350995) can0 113#0000050052400000
(1522028466.351234) can0 115#4E000209000001EB
(1522028466.351470) can0 117#F9357FBE8193815F
(1522028466.351713) can0 118#2241000060000000
(1522028466.351956) can0 119#4305000000000000
(1522028466.352195) can0 010#00F10062006281AB
(1522028466.352430) can0 122#7D7D3C6CF40000E2
(1522028466.352678) can0 123#0000300000000000
(1522028466.355506) can0 121#0000000040000000
(1522028466.355754) can0 140#000000008000106F
(1522028466.355994) can0 091#00007F167F1D0001
(1522028466.356236) can0 229#003B801300001814
(1522028466.356477) can0 25C#F860000002411814
(1522028466.356711) can0 339#153F0073C643C1FD
(1522028466.356952) can0 444#014A816C00009298
(1522028466.359932) can0 342#0027077F0E0039C5
(1522028466.360185) can0 344#A5A1B1A8459C4000
(1522028466.360826) can0 14A#6BFB38050005FFFF
(1522028466.361058) can0 170#80D280D280D580D7
(1522028466.361300) can0 211#00A0000520000407
(1522028466.361536) can0 253#021B02197E030105
(1522028466.361768) can0 254#918FC66A33AF00FD
(1522028466.362002) can0 262#080308033C5CA7D4
(1522028466.362244) can0 010#01E10062006281AB
(1522028466.362491) can0 263#00000FFF00000FFE
(1522028466.362732) can0 346#FD022B80FD000000
(1522028466.362979) can0 417#0002820000000000
(1522028466.363228) can0 65A#00000007FD000000
(1522028466.365519) can0 050#8000880000000000
(1522028466.365764) can0 111#B000080000006000
(1522028466.365996) can0 04A#00D8D8D8FED8D8D8
(1522028466.366240) can0 113#0000050052400000
(1522028466.366479) can0 115#4E000208000001EE
(1522028466.366712) can0 117#F9357FBA8194815F
(1522028466.366958) can0 118#2242000060000000
(1522028466.367201) can0 119#4305000000000000
(1522028466.367433) can0 122#7D7D3C6CF40000EA
(1522028466.367681) can0 123#0000300000000000
(1522028466.367927) can0 299#0600000000000000
(1522028466.368177) can0 301#0400000000000000
(1522028466.369872) can0 264#0003948C0E008176
(1522028466.371996) can0 010#02CE0062006281AE
(1522028466.375548) can0 121#0000000040000000
(1522028466.375794) can0 140#000000008000106C
(1522028466.376036) can0 091#00007F167F1B0001
(1522028466.376276) can0 229#003B8013000017ED
(1522028466.376516) can0 25C#F8600000024217ED
(1522028466.379883) can0 350#002403DA42BF639C
(1522028466.380499) can0 050#8000880000000000
(1522028466.380743) can0 111#B000080000006000
(1522028466.380988) can0 113#0000050052400000
(1522028466.381230) can0 115#4E000208000001F2
(1522028466.381463) can0 117#F9357FB9819A815F
(1522028466.381708) can0 118#2242000060000000
(1522028466.381949) can0 119#4305000000000000
(1522028466.382187) can0 010#03CF0062005181AE
(1522028466.382422) can0 122#7D7D3C6CF40000ED
(1522028466.382670) can0 123#0000300000000000
(1522028466.382906) can0 14A#6BFA48060005FFFF
(1522028466.383138) can0 170#80D780D580D780DA
(1522028466.383380) can0 211#00A0000520000407
(1522028466.383615) can0 253#021E02197E02010D
(1522028466.383843) can0 254#918FAA6A43AF0108
(1522028466.384077) can0 339#153F0073C643C1FD
(1522028466.389906) can0 264#0003848C00000176
(1522028466.390166) can0 342#0027073F0E0039C5
(1522028466.390450) can0 344#A5A1B1A8459C0000
(1522028466.390727) can0 40A#FF04000444000404
(1522028466.390959) can0 262#080408043C5DA7D4
(1522028466.391207) can0 263#00000FFF00000FFE
(1522028466.391447) can0 346#FC032B80FD000000
(1522028466.391695) can0 417#0002820000000000
(1522028466.391939) can0 441#C06A2A0000000000
(1522028466.392175) can0 010#04BD0062005181B0
(1522028466.392411) can0 494#B4A412000185055B
(1522028466.395509) can0 050#8000880000000000
(1522028466.395753) can0 111#B000080000006000
(1522028466.395983) can0 04B#D8D8D8D8D8D8C000
(1522028466.396226) can0 091#00007F167F190001
(1522028466.396470) can0 113#0000050052400000
(1522028466.396714) can0 115#4E000208000001F7
(1522028466.396946) can0 117#F9357FB68199815F
(1522028466.397190) can0 118#2243000060000000
(1522028466.397433) can0 119#4305000000000000
(1522028466.397683) can0 121#0000000040000000
(1522028466.397917) can0 122#7D7D3C6CF40000F4
(1522028466.398165) can0 123#0000300000000000
(1522028466.398411) can0 140#0000000080001072
(1522028466.398649) can0 229#003B8013000017E3
(1522028466.398891) can0 25C#F8600000024317E3
(1522028466.399138) can0 299#0600000000000000
(1522028466.399388) can0 301#0400000000000000
(1522028466.399631) can0 340#191A80007F0FBFFF
(1522028466.400824) can0 14A#6BF958050005FFFF
(1522028466.401056) can0 170#80E180DE80DE80E1
(1522028466.401299) can0 211#00A0000520000407
(1522028466.401531) can0 253#021B021B7E030113
(1522028466.401759) can0 254#918F946A53AF010E
(1522028466.402055) can0 010#05AD0062005181B0
(1522028466.405496) can0 339#153F0073C643C1FD
(1522028466.409872) can0 264#0003948C0D00FD76
(1522028466.410497) can0 050#8000880000000000
(1522028466.410741) can0 111#B000080000006000
(1522028466.410986) can0 113#0000050052400000
(1522028466.411231) can0 115#4E000208000001F7
(1522028466.411462) can0 117#F9357FAF819C815E
(1522028466.411703) can0 118#2244000060000000
(1522028466.411945) can0 119#4305000000000000
(1522028466.412181) can0 010#069B0062005181B2
(1522028466.412415) can0 122#7D7D3C6CF40000F7
(1522028466.412663) can0 123#0000300000000000
(1522028466.415504) can0 121#0000000040000000
(1522028466.415748) can0 140#000000008000108A
(1522028466.415991) can0 091#00007F1A7F1D0001
(1522028466.416229) can0 229#003B8013000017CE
(1522028466.416470) can0 25C#F8600000024417CE
(1522028466.419883) can0 342#0007073D0E0039C5
(1522028466.420138) can0 344#A5A1B1A8459C4000
(1522028466.420841) can0 14A#6BF868040005FFFF
(1522028466.421075) can0 170#80E680E480E980EB
(1522028466.421315) can0 211#00A0000520000407
(1522028466.421548) can0 253#021B021C7E04011B
(1522028466.421775) can0 254#918F796A63AF0119
(1522028466.422007) can0 262#080408043D5DA8D5
(1522028466.422245) can0 010#07890062005181B4
(1522028466.422493) can0 263#00000FFF00000FFE
(1522028466.422733) can0 346#FB042B80FD000000
(1522028466.422982) can0 417#0002820000000000
(1522028466.425507) can0 050#8000880000000000
(1522028466.425751) can0 111#B000080000006000
(1522028466.425996) can0 113#0000050052400000
(1522028466.426236) can0 115#4E000207000001F9
(1522028466.426466) can0 117#F9357FAD81A2815D
(1522028466.426708) can0 118#2244000060000000
(1522028466.426952) can0 119#4305000000000000
(1522028466.427191) can0 122#7D7D3C6CF40000FE
(1522028466.427440) can0 123#0000300000000000
(1522028466.427686) can0 299#0600000000000000
(1522028466.427935) can0 301#0400000000000000
(1522028466.428185) can0 444#014A816C00009298
(1522028466.429916) can0 264#0003848C00000176
(1522028466.430146) can0 494#B42412000185055B
(1522028466.430500) can0 339#153F0073C643C1FD
(1522028466.432054) can0 010#08790062005181B4
(1522028466.435546) can0 121#0000000040000000
(1522028466.435763) can0 140#000000008000106D
(1522028466.435992) can0 091#00007F167F1B0001
(1522028466.436230) can0 229#003B8013000017A2
(1522028466.436469) can0 25C#F8600000024417A2
(1522028466.440559) can0 050#8000880000000000
(1522028466.440750) can0 111#B000080000006000
(1522028466.440987) can0 113#0000050052400000
(1522028466.441225) can0 115#4E000206000001FB
(1522028466.441461) can0 117#F9357FAC81A3815D
(1522028466.441724) can0 118#2244000060000000
(1522028466.441963) can0 119#4305000000000000
(1522028466.442205) can0 010#09660062005181B7
(1522028466.442438) can0 122#7D7D3C6CF4000102
(1522028466.442676) can0 123#0000300000000000
(1522028466.442903) can0 14A#6BF778060005FFFF
(1522028466.443154) can0 170#80E980E980ED80ED
(1522028466.443380) can0 211#00A0000520000407
(1522028466.443615) can0 253#021E021D7E040123
(1522028466.443843) can0 254#918F646A73AF011E
(1522028466.445562) can0 4EC#8922740000000000
(1522028466.449956) can0 264#0003948C0E00FD76
(1522028466.450154) can0 342#0027073F0E0039C5
(1522028466.450425) can0 344#85A1B1A8459C4000
(1522028466.450684) can0 350#002403DA42BFE39C
(1522028466.450916) can0 262#080508053D5EA8D5
(1522028466.451174) can0 263#00000FFF00000FFE
(1522028466.451405) can0 346#FA052B80FD000000
(1522028466.451655) can0 417#0002820000000000
(1522028466.451896) can0 441#C06A2A0000000000
(1522028466.452132) can0 010#0A560062005181B7
(1522028466.455599) can0 050#8000880000000000
(1522028466.455757) can0 111#B000080000006000
(1522028466.455991) can0 091#00007F137F190001
(1522028466.456237) can0 113#0000050052400000
(1522028466.456474) can0 115#4E00020700000200
(1522028466.456710) can0 117#F9357FA981A2815F
(1522028466.456959) can0 118#2245000060000000
(1522028466.457201) can0 119#4305000000000000
(1522028466.457450) can0 121#0000000040000000
(1522028466.457680) can0 122#7D7D3C6DF400010A
(1522028466.457938) can0 123#0000300000000000
(1522028466.458178) can0 140#0000000080001072
(1522028466.458422) can0 229#003B801300001794
(1522028466.458663) can0 25C#F860000002451794
(1522028466.458905) can0 299#0600000000000000
(1522028466.459263) can0 301#0400000000000000
(1522028466.459395) can0 339#153F0078C643C1FD
(1522028466.460949) can0 14A#6BF688050005FFFF
(1522028466.461056) can0 170#80F280ED80F280F2
(1522028466.461362) can0 211#00A0000520000407
(1522028466.461534) can0 253#021C021C7E04012A
(1522028466.461771) can0 254#918F4E6A83AF0124
(1522028466.462012) can0 65A#00000007FD000000
(1522028466.462245) can0 010#0B440062005181B9
(1522028466.465876) can0 04A#00D8D8D8FED8D8D8
(1522028466.469966) can0 264#0003848C00000176
(1522028466.470160) can0 494#B4A412000185055B
(1522028466.470522) can0 050#8000880000000000
(1522028466.470750) can0 111#B000080000006000
(1522028466.471001) can0 113#0000050052400000
(1522028466.471239) can0 115#4E00020700000200
(1522028466.471506) can0 117#F9357FA381A58160
(1522028466.471765) can0 118#2246000060000000
(1522028466.471996) can0 119#4305000000000000
(1522028466.472245) can0 010#0C340062005181B9
(1522028466.472460) can0 122#7D7D3C6EF400010D
(1522028466.472737) can0 123#0000300000000000
(1522028466.475588) can0 121#0000000040000000
(1522028466.475758) can0 140#000000008000106C
(1522028466.475986) can0 091#00007F0C7F1B0001
(1522028466.476227) can0 229#003B80130000177E
(1522028466.476468) can0 25C#F86000000246177E
(1522028466.479922) can0 342#0007077D0E0039C5
(1522028466.480156) can0 344#A5A1B1A8459C0000
(1522028466.480511) can0 339#153F0078C643C1FD
(1522028466.480867) can0 14A#6BF598040005FFFF
(1522028466.481108) can0 170#80FA80F580F780FA
(1522028466.481337) can0 211#00A0000520000407
(1522028466.481572) can0 253#0220021C7E030133
(1522028466.481802) can0 254#918F386A93AF012A
(1522028466.482028) can0 262#080508053E5EA9D6
(1522028466.482265) can0 010#0D220062005181BB
(1522028466.482514) can0 263#00000FFF00000FFE
(1522028466.482754) can0 346#F9062B80FD000000
(1522028466.483004) can0 417#0002820000000000
(1522028466.485547) can0 050#8000880000000000
(1522028466.485761) can0 111#B000080000006000
(1522028466.485997) can0 113#0000050052410000
(1522028466.486241) can0 115#4E00020600000202
(1522028466.486468) can0 117#F9357FA181AB8163
(1522028466.486723) can0 118#2246000060000000
(1522028466.486954) can0 119#4305000000000000
(1522028466.487183) can0 122#7D7D3C6FF4000114
(1522028466.487433) can0 123#0000300000000000
(1522028466.487680) can0 299#0600000000000000
(1522028466.487978) can0 301#0400000000000000
(1522028466.489914) can0 264#0003848C00000176
(1522028466.492036) can0 010#0E120062005181BB
(1522028466.495538) can0 121#0000000040000000
(1522028466.495749) can0 140#000000008000106A
(1522028466.495986) can0 04B#D8D8D8D8D8D8C000
(1522028466.496220) can0 091#00007F0F7F1D0001
(1522028466.496461) can0 229#003B801300001755
(1522028466.496694) can0 25C#F860000002471755
(1522028466.496934) can0 340#191A80007F0FBFFF
(1522028466.497173) can0 444#014A846C00009298
(1522028466.500542) can0 050#8000880000000000
(1522028466.500741) can0 111#B000080000006000
(1522028466.500984) can0 113#0000050052410000
(1522028466.501223) can0 115#4E00020500000204
(1522028466.501451) can0 117#F9357F9D81A88165
(1522028466.501695) can0 118#2247000060000000
(1522028466.501937) can0 119#4305000000000000
(1522028466.502178) can0 010#0F000062005181BD
(1522028466.502413) can0 122#7D7D3C6FF4000118
(1522028466.502661) can0 123#0000300000000000
(1522028466.502897) can0 14A#6BF4A8050005FFFF
(1522028466.503140) can0 170#80FF80FC80FF8101
(1522028466.503383) can0 211#00A0000520000407
(1522028466.503615) can0 253#021C021B7E03013A
(1522028466.503842) can0 254#918F1D6AA3AF0135
(1522028466.505494) can0 339#153F0078C643C1FD
(1522028466.509900) can0 264#0003948C0D00FD76
(1522028466.510160) can0 342#0027073F0E0039C5
(1522028466.510418) can0 344#A5A1B1A8459C4000
(1522028466.510696) can0 40A#FF05010200080000
(1522028466.510928) can0 262#080508053F5FA9D6
(1522028466.511177) can0 263#00000FFF00000FFE
(1522028466.511415) can0 346#F8072B80FD000000
(1522028466.511663) can0 417#0002820000000000
(1522028466.511907) can0 441#C06A2A0000000000
(1522028466.512147) can0 010#00ED0062005181C0
(1522028466.512384) can0 494#B42412000185055B
(1522028466.515506) can0 050#8000880000000000
(1522028466.515750) can0 111#B000080000006000
(1522028466.515993) can0 091#00007F087F210001
(1522028466.516234) can0 113#0000050052490000
(1522028466.516477) can0 115#4E00020600000208
(1522028466.516706) can0 117#F9357F9D81A98189
(1522028466.516948) can0 118#2251000060000000
(1522028466.517190) can0 119#4305000000000000
(1522028466.517440) can0 121#0000000040000000
(1522028466.517677) can0 122#7D7D3C70F400011F
(1522028466.517925) can0 123#0000300000000000
(1522028466.518173) can0 140#000000008000106E
(1522028466.518411) can0 229#003B801300001743
(1522028466.518649) can0 25C#F860000002511743
(1522028466.518896) can0 299#0600000000000000
(1522028466.519146) can0 301#0400000000000000
(1522028466.519893) can0 350#000003DA42BF639C
(1522028466.520814) can0 14A#6BF3B8060005FFFF
(1522028466.521052) can0 170#810681048106810B
(1522028466.521294) can0 211#00A0000520000407
(1522028466.521528) can0 253#021C021C7E030141
(1522028466.521761) can0 254#918F076AB3AF013B
(1522028466.522055) can0 010#01DD0062005181C0
(1522028466.529879) can0 264#0003848C00000176
(1522028466.530499) can0 050#8000880000000000
(1522028466.530743) can0 111#B000080000006000
(1522028466.530984) can0 113#0000050052490000
(1522028466.531227) can0 115#4E00020600000208
(1522028466.531459) can0 117#F9357F9981DF818A
(1522028466.531703) can0 118#224F000060000000
(1522028466.531945) can0 119#4305000000000000
(1522028466.532185) can0 010#02DD0062004181C0
(1522028466.532421) can0 122#7D7D3C71F4000122
(1522028466.532669) can0 123#0000300000000000
(1522028466.532901) can0 339#153F0078C643C1FD
(1522028466.535507) can0 121#0000000040000000
(1522028466.535750) can0 140#0000000080001063
(1522028466.535989) can0 091#00007F087F210001
(1522028466.536227) can0 229#003B80130000172C
(1522028466.536466) can0 25C#F8600000024F172C
(1522028466.539932) can0 342#0007073D0E0039C5
(1522028466.540189) can0 344#A5A1B1A8459C0000
(1522028466.540817) can0 14A#6BF2C8070005FFFF
(1522028466.541050) can0 170#810D8108810D8110
(1522028466.541292) can0 211#00A0000520000407
(1522028466.541524) can0 253#021D021E7E040149
(1522028466.541755) can0 254#918FEC6AC3AF0146
(1522028466.541987) can0 262#080508053F60AAD7
(1522028466.542222) can0 010#03BB0031005181C2
(1522028466.542470) can0 263#00000FFF00000FFE
(1522028466.542709) can0 346#F7082B80FD000000
(1522028466.542957) can0 417#0002820000000000
(1522028466.545506) can0 050#8000880000000000
(1522028466.545750) can0 111#B000080000006000
(1522028466.545987) can0 113#0000050052460000
(1522028466.546230) can0 115#4E00020500000209
(1522028466.546460) can0 117#F9357F9781D2817A
(1522028466.546704) can0 118#224B000060000000
(1522028466.546946) can0 119#4305000000000000
(1522028466.547183) can0 122#7D7D3C71F400012A
(1522028466.547431) can0 123#0000300000000000
(1522028466.547677) can0 299#0600000000000000
(1522028466.547925) can0 301#0500000000000000
(1522028466.548165) can0 4EC#8922740000000000
(1522028466.549925) can0 264#0003948C0E00FD76
(1522028466.550192) can0 494#B42412000185055B
(1522028466.551995) can0 010#04A90062005181C4
(1522028466.555500) can0 121#0000000040000000
(1522028466.555743) can0 091#00007F057F210001
(1522028466.555989) can0 140#0000000080001067
(1522028466.556227) can0 229#003B8013000016FC
(1522028466.556467) can0 25C#F8600000024A16FC
(1522028466.556704) can0 339#153F007DC643C1FD
(1522028466.560541) can0 050#8000880000000000
(1522028466.560741) can0 111#B000080000006000
(1522028466.560979) can0 113#0000050052460000
(1522028466.561221) can0 115#4E00020400000209
(1522028466.561454) can0 117#F9357F7F81BA817C
(1522028466.561695) can0 118#224A000060000000
(1522028466.561940) can0 119#4305000000000000
(1522028466.562174) can0 010#05990062005181C4
(1522028466.562407) can0 122#7D7D3C71F400012E
(1522028466.562655) can0 123#0000300000000000
(1522028466.562907) can0 14A#6BF1D8070005FFFF
(1522028466.563143) can0 170#8115811081158117
(1522028466.563379) can0 211#00A0000520000407
(1522028466.563607) can0 253#0222021F7E040153
(1522028466.563850) can0 254#918FD76AD3AF014B
(1522028466.564092) can0 65A#00000007FD000000
(1522028466.565528) can0 444#014A866C00009298
(1522028466.565852) can0 04A#00D8D8D8FED8D8D8
(1522028466.569886) can0 264#0003848C00000176
(1522028466.570135) can0 342#0027077F0E0039C5
(1522028466.570423) can0 344#85A1B1A8459C4000
(1522028466.570695) can0 400#0903010101000900
(1522028466.570929) can0 262#080608064060ABD8
(1522028466.571177) can0 263#00000FFF00000FFE
(1522028466.571416) can0 346#F6092B80FD000000
(1522028466.571650) can0 405#016711472F32FFFF
(1522028466.571897) can0 417#0002820000000000
(1522028466.572136) can0 010#06990062004181C4
(1522028466.572380) can0 441#C06A2A0000000000
(1522028466.575504) can0 050#8000880000000000
(1522028466.575747) can0 111#B000080000006000
(1522028466.575988) can0 091#00007F087F210001
(1522028466.576226) can0 113#0000050052460000
(1522028466.576466) can0 115#4E0002040000020D
(1522028466.576698) can0 117#F9357F7881B4817D
(1522028466.576940) can0 118#224A000060000000
(1522028466.577187) can0 119#4305000000000000
(1522028466.577438) can0 121#0000000040000000
(1522028466.577670) can0 122#7D7D3C71F4000136
(1522028466.577922) can0 123#0000300000000000
(1522028466.578164) can0 140#0000000080001071
(1522028466.578400) can0 229#003B8013000016EC
(1522028466.578640) can0 25C#F8600000024A16EC
(1522028466.578887) can0 299#0600000000000000
(1522028466.579181) can0 301#0500000000000000
(1522028466.580493) can0 339#153F007DC643C1FD
(1522028466.580805) can0 14A#6BF0E8070005FFFF
(1522028466.581036) can0 170#811981158117811C
(1522028466.581276) can0 211#00A0000520000407
(1522028466.581511) can0 253#0225021E7E04015F
(1522028466.581740) can0 254#918FC16AE3AF0151
(1522028466.582043) can0 010#07890062004181C4
(1522028466.589883) can0 264#0003948C0C008176
(1522028466.590138) can0 350#002403DA42BF639C
(1522028466.590409) can0 494#B4A412000185055B
