(1522004165.988068) can0 264#0003948C0C00FD83
(1522004165.988292) can0 04A#00D8D8D8FED8D8D8
(1522004165.988807) can0 010#0DFB00D4009380A1
(1522004165.992318) can0 050#8000880000000000
(1522004165.992561) can0 111#B000080000006000
(1522004165.992804) can0 113#0000020052160000
(1522004165.993044) can0 115#4E0002010000013E
(1522004165.993276) can0 117#F9358090805F8090
(1522004165.993593) can0 118#2208000060000000
(1522004165.993768) can0 119#4305000000000000
(1522004165.994017) can0 121#0000000040000000
(1522004165.994259) can0 122#7D7D3C00F4000000
(1522004165.994507) can0 123#0000300000000000
(1522004165.994753) can0 140#0000000080001227
(1522004165.994989) can0 229#003B801300001B26
(1522004165.995234) can0 25C#F860000002081B26
(1522004165.995472) can0 14A#6BFC28000005FFFF
(1522004165.995716) can0 170#801F80338033801F
(1522004165.995958) can0 211#00A0000520000407
(1522004165.996205) can0 253#01FF020C7DFA0000
(1522004165.996440) can0 254#918FD364239E0000
(1522004165.996687) can0 299#0600000000000000
(1522004165.996933) can0 301#B500000000000000
(1522004165.998447) can0 091#00007EF47F090001
(1522004165.998829) can0 010#0ED900A300A380A3
(1522004166.002311) can0 339#153F004BC610C1FD
(1522004166.005456) can0 262#08000800F78544D2
(1522004166.005676) can0 263#00000FFF00000FFE
(1522004166.005914) can0 346#F8072B80FD000000
(1522004166.006162) can0 417#0002820000000000
(1522004166.007316) can0 050#8000880000000000
(1522004166.007559) can0 111#B000080000006000
(1522004166.007803) can0 113#0000020052150000
(1522004166.008046) can0 115#4E00020100000140
(1522004166.008278) can0 117#F935808B805F808B
(1522004166.008526) can0 118#2208000060000000
(1522004166.008769) can0 119#4305000000000000
(1522004166.009005) can0 010#0FC600A300A380A6
(1522004166.009247) can0 122#7D7D3C00F4000000
(1522004166.009495) can0 123#0000300000000000
(1522004166.009737) can0 264#0003848C00000183
(1522004166.010003) can0 342#0027073F0E003888
(1522004166.010257) can0 344#85A1B1A846354000
(1522004166.010542) can0 40A#0000000000000000
(1522004166.010824) can0 441#806A2A0000000000
(1522004166.011094) can0 494#B424120001850035
(1522004166.012333) can0 121#0000000040000000
(1522004166.012578) can0 140#0000000080001210
(1522004166.012817) can0 229#003B801300001B19
(1522004166.013059) can0 25C#F860000002081B19
(1522004166.013296) can0 444#0118393C00009E98
(1522004166.015425) can0 14A#6BFB38000005FFFF
(1522004166.015655) can0 170#8038803580338038
(1522004166.015899) can0 211#00A0000520000407
(1522004166.016162) can0 253#01FF020D7DFA0000
(1522004166.016375) can0 254#918FC364339E0000
(1522004166.018088) can0 400#1502000105010104
(1522004166.018300) can0 04B#D8D8D8D8D8D8C000
(1522004166.018539) can0 091#00007EF47F090001
(1522004166.018780) can0 340#191A80007F0FBFFF
(1522004166.019019) can0 010#00B400A300A380A8
(1522004166.019253) can0 405#0167114379E6FFFF
(1522004166.022329) can0 050#8000880000000000
(1522004166.022564) can0 111#B000080000006000
(1522004166.022806) can0 113#0000020052150000
(1522004166.023050) can0 115#4E00020100000140
(1522004166.023281) can0 117#F935808C8061808C
(1522004166.023549) can0 118#2208000060000000
(1522004166.023773) can0 119#4305000000000000
(1522004166.024014) can0 122#7D7D3C00F4000000
(1522004166.024262) can0 123#0000300000000000
(1522004166.024508) can0 299#0600000000000000
(1522004166.024754) can0 301#B500000000000000
(1522004166.027313) can0 339#153F004BC610C1FD
(1522004166.028008) can0 264#0003948C0E008183
(1522004166.028793) can0 010#01A200A300A380AA
(1522004166.032354) can0 121#0000000040000000
(1522004166.032573) can0 140#00000000800010DD
(1522004166.032808) can0 229#003B801300001ACD
(1522004166.033058) can0 25C#F860000002091ACD
(1522004166.035415) can0 14A#6BFA48010005FFFF
(1522004166.035650) can0 170#803A803580338038
(1522004166.035892) can0 211#00A0000520000407
(1522004166.036138) can0 253#01FF020E7DFA0000
(1522004166.036373) can0 254#918FB364439E0000
(1522004166.036607) can0 262#08000800F78544D2
(1522004166.036855) can0 263#00000FFF00000FFE
(1522004166.037094) can0 346#F7082B80FD000000
(1522004166.037341) can0 050#8000880000000000
(1522004166.037585) can0 111#B000080000006000
(1522004166.037831) can0 113#0000020052160000
(1522004166.038072) can0 115#4E0002000000013F
(1522004166.038320) can0 091#00007EFE7F070001
(1522004166.038554) can0 117#F935808E8060808E
(1522004166.038801) can0 118#2209000060000000
(1522004166.039037) can0 010#029000A300A380AC
(1522004166.039279) can0 119#4305000000000000
(1522004166.039521) can0 122#7D7D3C00F4000000
(1522004166.039768) can0 123#0000300000000000
(1522004166.040006) can0 342#0027073F0E003888
(1522004166.040254) can0 417#0002820000000000
(1522004166.040484) can0 344#A5A1B1A846354000
(1522004166.040744) can0 350#002403DA42FB639C
(1522004166.042326) can0 4EC#8F22B90000000000
(1522004166.048048) can0 264#0003848C00007D83
(1522004166.048293) can0 494#B424120001850035
(1522004166.048807) can0 010#039000A3009380AC
(1522004166.052325) can0 050#8000880000000000
(1522004166.052569) can0 111#B000080000006000
(1522004166.052814) can0 113#0000020052160000
(1522004166.053056) can0 115#4E0002000000013F
(1522004166.053290) can0 117#F935809080638090
(1522004166.053538) can0 118#2209000060000000
(1522004166.053774) can0 119#4305000000000000
(1522004166.054024) can0 121#0000000040000000
(1522004166.054266) can0 122#7D7D3C00F4000000
(1522004166.054514) can0 123#0000300000000000
(1522004166.054759) can0 140#00000000800010D4
(1522004166.054995) can0 229#003B801300001AC4
(1522004166.055237) can0 25C#F860000002091AC4
(1522004166.055475) can0 14A#6BF958000005FFFF
(1522004166.055718) can0 170#803A803580338038
(1522004166.055954) can0 211#00A0000520000407
(1522004166.056200) can0 253#01FF020E7DFA0000
(1522004166.056434) can0 254#918FA364539E0000
(1522004166.056680) can0 299#0600000000000000
(1522004166.056927) can0 301#B500000000000000
(1522004166.057157) can0 339#153F004DC610C1FD
(1522004166.057407) can0 65A#0000000800000000
(1522004166.058436) can0 091#00007F087F090001
(1522004166.058818) can0 010#048D0062008380AF
(1522004166.065461) can0 262#08000800F78544D2
(1522004166.065708) can0 263#00000FFF00000FFE
(1522004166.065945) can0 346#F6092B80FD000000
(1522004166.066193) can0 417#0002820000000000
(1522004166.067321) can0 050#8000880000000000
(1522004166.067565) can0 111#B000080000006000
(1522004166.067808) can0 113#0000020052170000
(1522004166.068054) can0 115#4E00020000000140
(1522004166.068280) can0 117#F935809280618092
(1522004166.068526) can0 118#2209000060000000
(1522004166.068769) can0 119#4305000000000000
(1522004166.069007) can0 010#057B0062008380B1
(1522004166.069249) can0 122#7D7D3C00F4000000
(1522004166.069497) can0 123#0000300000000000
(1522004166.069737) can0 264#0003848C01000183
(1522004166.070003) can0 342#0007077D0E003888
(1522004166.070264) can0 344#A5A1B1A846350000
(1522004166.070542) can0 441#806A2A0000000000
(1522004166.072335) can0 121#0000000040000000
(1522004166.072581) can0 140#00000000800010BA
(1522004166.072817) can0 229#003B801300001ABD
(1522004166.073057) can0 25C#F860000002091ABD
(1522004166.075447) can0 14A#6BF868000005FFFF
(1522004166.075673) can0 170#803A803580388038
(1522004166.075915) can0 211#00A0000520000407
(1522004166.076183) can0 253#01FF020E7DFA0000
(1522004166.076394) can0 254#918F9364639E0000
(1522004166.077315) can0 339#153F004DC610C1FD
(1522004166.078294) can0 091#00007F137F0B0001
(1522004166.078810) can0 010#067C0062007280B1
(1522004166.082331) can0 050#8000880000000000
(1522004166.082575) can0 111#B000080000006000
(1522004166.082817) can0 113#0000020052170000
(1522004166.083059) can0 115#4E00020000000140
(1522004166.083291) can0 117#F935809280648092
(1522004166.083539) can0 118#2209000060000000
(1522004166.083780) can0 119#4305000000000000
(1522004166.084025) can0 122#7D7D3C00F4000000
(1522004166.084270) can0 123#0000300000000000
(1522004166.084516) can0 299#0600000000000000
(1522004166.084762) can0 301#B500000000000000
(1522004166.085003) can0 444#0118383C00009E98
(1522004166.088019) can0 264#0003948C0C00FD83
(1522004166.088294) can0 494#B4A4120001850035
(1522004166.088525) can0 04A#00D8D8D8FED8D8D8
(1522004166.088837) can0 010#076A0062007280B3
(1522004166.092327) can0 121#0000000040000000
(1522004166.092572) can0 140#000000008000108B
(1522004166.092809) can0 229#003B801300001AA7
(1522004166.093050) can0 25C#F8600000020A1AA7
(1522004166.095408) can0 14A#6BF778010005FFFF
(1522004166.095646) can0 170#803D803F803D803D
(1522004166.095879) can0 211#00A0000520000407
(1522004166.096125) can0 253#01FF020E7DFA0000
(1522004166.096359) can0 254#918F8364739E0000
(1522004166.096595) can0 262#08000800F88545D3
(1522004166.096843) can0 263#00000FFF00000FFE
(1522004166.097080) can0 346#F50A2B80FD000000
(1522004166.097328) can0 050#8000880000000000
(1522004166.097572) can0 111#B000080000006000
(1522004166.097820) can0 113#0000020052160000
(1522004166.098057) can0 115#4E00020100000142
(1522004166.098301) can0 091#00007F0C7F050001
(1522004166.098531) can0 117#F935808D8064808D
(1522004166.098781) can0 118#220A000060000000
(1522004166.099017) can0 010#086A0062006280B3
(1522004166.099259) can0 119#4305000000000000
(1522004166.099504) can0 122#7D7D3C00F4000000
(1522004166.099749) can0 123#0000300000000000
(1522004166.099985) can0 342#0027073F0E003888
(1522004166.100232) can0 417#0002820000000000
(1522004166.100462) can0 344#A5A1B1A846354000
(1522004166.102360) can0 339#153F004DC610C1FD
(1522004166.108023) can0 264#0003848C00000183
(1522004166.108290) can0 350#000003DA42FBE39C
(1522004166.108805) can0 010#096B0062005180B3
(1522004166.112324) can0 050#8000880000000000
(1522004166.112568) can0 111#B000080000006000
(1522004166.112809) can0 113#0000020052160000
(1522004166.113050) can0 115#4E00020100000142
(1522004166.113282) can0 117#F935808D806A808D
(1522004166.113539) can0 118#220A000060000000
(1522004166.113768) can0 119#4305000000000000
(1522004166.114019) can0 121#0000000040000000
(1522004166.114261) can0 122#7D7D3C00F4000000
(1522004166.114509) can0 123#0000300000000000
(1522004166.114756) can0 140#00000000800010B8
(1522004166.114994) can0 229#003B801300001AA6
(1522004166.115234) can0 25C#F8600000020A1AA6
(1522004166.115472) can0 14A#6BF688000005FFFF
(1522004166.115711) can0 170#8041803F803D8041
(1522004166.115953) can0 211#00A0000520000407
(1522004166.116197) can0 253#01FF020D7DFA0000
(1522004166.116427) can0 254#918F2A64839E0049
(1522004166.116673) can0 299#0600000000000000
(1522004166.116919) can0 301#B500000000000000
(1522004166.118398) can0 04B#D8D8D8D8D8D8C000
(1522004166.118648) can0 091#00007F017F050001
(1522004166.118885) can0 010#0A6B0062004180B3
(1522004166.119124) can0 340#191A80007F0FBFFF
(1522004166.125404) can0 262#08000800F88545D3
(1522004166.125652) can0 263#00000FFF00000FFE
(1522004166.125889) can0 346#F40B2B80FD000000
(1522004166.126138) can0 417#0002820000000000
(1522004166.127322) can0 050#8000880000000000
(1522004166.127566) can0 111#B000080000006000
(1522004166.127808) can0 113#0000020052160000
(1522004166.128048) can0 115#4E00020000000142
(1522004166.128281) can0 117#F935808D806A808D
(1522004166.128525) can0 118#220A000060000000
(1522004166.128767) can0 119#4305000000000000
(1522004166.129007) can0 010#0B580031004180B6
(1522004166.129247) can0 122#7D7D3C00F400000C
(1522004166.129495) can0 123#0000300000000000
(1522004166.129733) can0 264#0003948C0E008183
(1522004166.129966) can0 339#153F004DC610C1FD
(1522004166.130206) can0 342#0007073D0E003888
(1522004166.130464) can0 344#85A1B1A846350000
(1522004166.130731) can0 40A#C0003E114379E63A
(1522004166.131008) can0 441#806A2A0000000000
(1522004166.131281) can0 494#B424120001850035
(1522004166.132333) can0 121#0000000040000000
(1522004166.132577) can0 140#00000000800010B4
(1522004166.132814) can0 229#003B801300001A9E
(1522004166.133054) can0 25C#F8600000020A1A9E
(1522004166.135442) can0 14A#6BF598000005FFFF
(1522004166.135674) can0 170#8041803F803D8041
(1522004166.135917) can0 211#00A0000520000407
(1522004166.136161) can0 253#01FF020D7DFA0000
(1522004166.136391) can0 254#918F1A64939E0049
(1522004166.138273) can0 091#00007F057F0B0001
(1522004166.138800) can0 010#0C480031004180B6
(1522004166.142376) can0 050#8000880000000000
(1522004166.142565) can0 111#B000080000006000
(1522004166.142803) can0 113#0000020052160000
(1522004166.143043) can0 115#4E00020000000142
(1522004166.143275) can0 117#F935808D806A808D
(1522004166.143528) can0 118#220B000060000000
(1522004166.143781) can0 119#4305000000000000
(1522004166.144006) can0 122#7D7D3C00F400001E
(1522004166.144254) can0 123#0000300000000000
(1522004166.144501) can0 299#0600000000000000
(1522004166.144747) can0 301#B500000000000000
(1522004166.144987) can0 4EC#8F22B90000000000
(1522004166.148022) can0 264#0003848C00007D83
(1522004166.148795) can0 010#0D480031003180B6
(1522004166.152324) can0 121#0000000040000000
(1522004166.152568) can0 140#0000000080001162
(1522004166.152804) can0 229#003B801300001A88
(1522004166.153046) can0 25C#F8600000020E1A88
(1522004166.153281) can0 339#153F004FC610C1FD
(1522004166.153529) can0 444#0118393D00009E98
(1522004166.155415) can0 14A#6BF4A8000005FFFF
(1522004166.155653) can0 170#8041804480448041
(1522004166.155895) can0 211#00A0000520000407
(1522004166.156139) can0 253#01FF020D7DFA0000
(1522004166.156374) can0 254#918F0A64A39E0049
(1522004166.156604) can0 262#08000800F88645D3
(1522004166.156852) can0 263#00000FFF00000FFE
(1522004166.157086) can0 346#F30C2B80FD000000
(1522004166.157334) can0 050#8000880000000000
(1522004166.157579) can0 111#B000080000006000
(1522004166.157821) can0 113#0000020052160000
(1522004166.158063) can0 115#4E00020000000143
(1522004166.158305) can0 091#00007F0C7F0B0001
(1522004166.158537) can0 117#F935808C806F808C
(1522004166.158783) can0 118#220E000060000000
(1522004166.159024) can0 010#0E490031002080B6
(1522004166.159266) can0 119#4305000000000000
(1522004166.159506) can0 122#7D7D3C00F4000025
(1522004166.159766) can0 123#0000300000000000
(1522004166.159993) can0 342#0027077F0E003888
(1522004166.160240) can0 417#0002820000000000
(1522004166.160470) can0 344#A5A1B1A846354000
(1522004166.160719) can0 65A#0000000800000000
(1522004166.168016) can0 264#0003948C0D008183
(1522004166.168285) can0 494#B4A4120001850035
(1522004166.168814) can0 010#0F260031003180B8
(1522004166.172331) can0 050#8000880000000000
(1522004166.172570) can0 111#B000080000006000
(1522004166.172811) can0 113#0000020052150000
(1522004166.173053) can0 115#4E00020000000143
(1522004166.173287) can0 117#F935808B8082808B
(1522004166.173535) can0 118#220F000060000000
(1522004166.173776) can0 119#4305000000000000
(1522004166.174026) can0 121#0000000040000000
(1522004166.174272) can0 122#7D7D3C00F4000030
(1522004166.174516) can0 123#0000300000000000
(1522004166.174761) can0 140#00000000800010F5
(1522004166.174997) can0 229#003B801300001A72
(1522004166.175239) can0 25C#F8600000020F1A72
(1522004166.175481) can0 14A#6BF3B8010005FFFF
(1522004166.175728) can0 170#804980498049804B
(1522004166.175958) can0 211#00A0000520000407
(1522004166.176202) can0 253#01FF020D7DFB0000
(1522004166.176434) can0 254#918FEF64B39E0054
(1522004166.176680) can0 299#0600000000000000
(1522004166.176926) can0 301#B500000000000000
(1522004166.177316) can0 339#153F004FC610C1FD
(1522004166.178095) can0 350#002403DA42FB639C
(1522004166.178399) can0 091#00007F137F070001
(1522004166.178840) can0 010#00270031002080B8
(1522004166.185407) can0 262#08000800F88645D3
(1522004166.185654) can0 263#00000FFF00000FFE
(1522004166.185889) can0 346#F20D2B80FD000000
(1522004166.186137) can0 417#0002820000000000
(1522004166.187319) can0 050#8000880000000000
(1522004166.187564) can0 111#B000080000006000
(1522004166.187806) can0 113#0000020052150000
(1522004166.188044) can0 115#4E00020100000145
(1522004166.188276) can0 04A#00D8D8D8FED8D8D8
(1522004166.188506) can0 117#F935808C8086808C
(1522004166.188752) can0 118#220F000060000000
(1522004166.188997) can0 010#01170031002080B8
(1522004166.189239) can0 119#4305000000000000
(1522004166.189483) can0 122#7D7D3C00F4000036
(1522004166.189729) can0 123#0000300000000000
(1522004166.189972) can0 264#0003848C00007D83
(1522004166.190233) can0 342#0027073F0E003888
(1522004166.190490) can0 344#A5A1B1A846354000
(1522004166.190772) can0 441#806A2A0000000000
(1522004166.192333) can0 121#0000000040000000
(1522004166.192579) can0 140#0000000080001143
(1522004166.192815) can0 229#003B801300001A3A
(1522004166.193057) can0 25C#F8600000020F1A3A
(1522004166.195407) can0 14A#6BF2C8000005FFFF
(1522004166.195633) can0 170#804B80498049804B
(1522004166.195876) can0 211#00A0000520000407
(1522004166.196120) can0 253#01FF020D7DFB0000
(1522004166.196350) can0 254#918FD964C39E005A
(1522004166.198248) can0 091#00007F087F090001
(1522004166.198800) can0 010#02070031002080B8
(1522004166.202320) can0 050#8000880000000000
(1522004166.202564) can0 111#B000080000006000
(1522004166.202808) can0 113#0000020052140000
(1522004166.203046) can0 115#4E00020100000145
(1522004166.203278) can0 117#F935808680868086
(1522004166.203526) can0 118#2210000060000000
(1522004166.203767) can0 119#4305000000000000
(1522004166.204009) can0 122#7D7D3C00F4000040
(1522004166.204257) can0 123#0000300000000000
(1522004166.204504) can0 299#0600000000000000
(1522004166.204750) can0 301#B500000000000000
(1522004166.204984) can0 339#153F004FC610C1FD
(1522004166.208021) can0 264#0003948C0E008183
(1522004166.208289) can0 494#B424120001850035
(1522004166.208810) can0 010#03F70031002080B8
(1522004166.212589) can0 121#0000000040000000
(1522004166.212823) can0 140#00000000800010D3
(1522004166.213064) can0 229#003B8013000019FA
(1522004166.213307) can0 25C#F8600000021019FA
(1522004166.215453) can0 14A#6BF1D8000005FFFF
(1522004166.215675) can0 170#804B8049804E804B
(1522004166.215918) can0 211#00A0000520000407
(1522004166.216162) can0 253#01FF020D7DFA0000
(1522004166.216392) can0 254#918FC964D39E005A
(1522004166.216628) can0 262#08000800F88645D3
(1522004166.216876) can0 263#00000FFF00000FFE
(1522004166.217114) can0 346#F10E2B80FD000000
(1522004166.217363) can0 050#8000880000000000
(1522004166.217607) can0 111#B000080000006000
(1522004166.217851) can0 113#0000020052140000
(1522004166.218089) can0 115#4E00020100000145
(1522004166.218320) can0 04B#D8D8D8D8D8D8C000
(1522004166.218561) can0 091#00007F017F0B0001
(1522004166.218792) can0 117#F9358087808B8087
(1522004166.219030) can0 010#04F70031001080B8
(1522004166.219276) can0 118#2210000060000000
(1522004166.219518) can0 119#4305000000000000
(1522004166.219756) can0 122#7D7D3C00F4000044
(1522004166.220005) can0 123#0000300000000000
(1522004166.220245) can0 340#191A80007F0FBFFF
(1522004166.220485) can0 342#0007073D0E003888
(1522004166.220733) can0 417#0002820000000000
(1522004166.220966) can0 344#A5A1B1A846350000
(1522004166.222325) can0 444#0118393D00009E98
(1522004166.227309) can0 339#153F004FC610C1FD
(1522004166.228018) can0 264#0003848C00000183
(1522004166.228800) can0 010#05D50031002080BA
(1522004166.232323) can0 050#8000880000000000
(1522004166.232567) can0 111#B000080000006000
(1522004166.232811) can0 113#0000020052140000
(1522004166.233049) can0 115#4E00020100000145
(1522004166.233279) can0 117#F9358087808B8087
(1522004166.233532) can0 118#2210000060000000
(1522004166.233765) can0 119#4305000000000000
(1522004166.234013) can0 121#0000000040000000
(1522004166.234253) can0 122#7D7D3C00F400004B
(1522004166.234501) can0 123#0000300000000000
(1522004166.234746) can0 140#00000000800010C4
(1522004166.234982) can0 229#003B8013000019EA
(1522004166.235223) can0 25C#F8600000021019EA
(1522004166.235460) can0 14A#6BF0E8010005FFFF
(1522004166.235697) can0 170#8055805C805A8055
(1522004166.235939) can0 211#00A0000520000407
(1522004166.236183) can0 253#01FF020D7DFB0000
(1522004166.236415) can0 254#918FB464E39E005F
(1522004166.236661) can0 299#0600000000000000
(1522004166.236908) can0 301#B500000000000000
(1522004166.238362) can0 091#00007F057F090001
(1522004166.238823) can0 010#06C50031002080BA
(1522004166.242310) can0 4EC#8F22B90000000000
(1522004166.245408) can0 262#08000800F98646D4
(1522004166.245655) can0 263#00000FFF00000FFE
(1522004166.245897) can0 346#F00F2B80FD000000
(1522004166.246143) can0 417#0002820000000000
(1522004166.247318) can0 050#8000880000000000
(1522004166.247563) can0 111#B000080000006000
(1522004166.247808) can0 113#0000020052140000
(1522004166.248050) can0 115#4E00020100000147
(1522004166.248280) can0 117#F9358087808C8087
(1522004166.248525) can0 118#2210000060000000
(1522004166.248768) can0 119#4305000000000000
(1522004166.249010) can0 010#07B50031002080BA
(1522004166.249248) can0 122#7D7D3C00F400004E
(1522004166.249498) can0 123#0000300000000000
(1522004166.249739) can0 264#0003848C00007D83
(1522004166.250001) can0 342#0027073F0E003888
(1522004166.250255) can0 344#85A1B1A846354000
(1522004166.250515) can0 350#002403DA42FB639C
(1522004166.250786) can0 40A#C001FF2C00388800
(1522004166.251062) can0 441#806A2A0000000000
(1522004166.251332) can0 494#B424120001850035
(1522004166.252336) can0 121#0000000040000000
(1522004166.252583) can0 140#00000000800010A0
(1522004166.252821) can0 229#003B8013000019D2
(1522004166.253063) can0 25C#F8600000021019D2
(1522004166.253295) can0 339#153F0050C610C1FD
(1522004166.255417) can0 14A#6BEFF8010005FFFF
(1522004166.255656) can0 170#805C805C805A805C
(1522004166.255886) can0 211#00A0000520000407
(1522004166.256123) can0 253#0206020D7DFB0072
(1522004166.256352) can0 254#918F9964F39E006A
(1522004166.256601) can0 65A#0000000800000000
(1522004166.258236) can0 091#00007F057F070001
(1522004166.258797) can0 010#08B50031001080BA
(1522004166.262318) can0 050#8000880000000000
(1522004166.262562) can0 111#B000080000006000
(1522004166.262806) can0 113#0000020052140000
(1522004166.263049) can0 115#4E00020100000147
(1522004166.263283) can0 117#F9358083808C8083
(1522004166.263527) can0 118#2211000060000000
(1522004166.263779) can0 119#4305000000000000
(1522004166.264006) can0 122#7D7D3C00F4000055
(1522004166.264256) can0 123#0000300000000000
(1522004166.264500) can0 299#0600000000000000
(1522004166.264747) can0 301#B500000000000000
(1522004166.268015) can0 264#0003948C0D008183
(1522004166.268293) can0 400#1602020000000001
(1522004166.268563) can0 405#02FF2C003A003888
(1522004166.268811) can0 010#09A50031001080BA
(1522004166.272324) can0 121#0000000040000000
(1522004166.272569) can0 140#00000000800010C3
(1522004166.272805) can0 229#003B8013000019B6
(1522004166.273046) can0 25C#F8600000021119B6
(1522004166.275440) can0 14A#6BFE08000005FFFF
(1522004166.275670) can0 170#805C805C805F805C
(1522004166.275912) can0 211#00A0000520000407
(1522004166.276150) can0 253#0204020E7DFB0073
(1522004166.276383) can0 254#918F8964039E006A
(1522004166.276619) can0 262#08000800F98746D4
(1522004166.276867) can0 263#00000FFF00000FFE
(1522004166.277108) can0 346#FF002B80FD000000
(1522004166.277356) can0 050#8000880000000000
(1522004166.277602) can0 111#B000080000006000
(1522004166.277844) can0 113#0000020052140000
(1522004166.278084) can0 115#4E0002020000014A
(1522004166.278328) can0 091#00007F087F090001
(1522004166.278562) can0 117#F935808380918083
(1522004166.278805) can0 118#2211000060000000
(1522004166.279047) can0 010#0A830031002080BC
(1522004166.279289) can0 119#4305000000000000
(1522004166.279527) can0 122#7D7D3C00F4000058
(1522004166.279787) can0 123#0000300000000000
(1522004166.280007) can0 339#153F0050C610C1FD
(1522004166.280247) can0 342#0007077D0E003888
(1522004166.280496) can0 417#0002820000000000
(1522004166.280728) can0 344#A5A1B1A846350000
(1522004166.288022) can0 264#0003848C02007D83
(1522004166.288252) can0 04A#00D8D8D8FED8D8D8
(1522004166.288488) can0 494#B4A4120001850035
(1522004166.288836) can0 010#0B730031002080BC
(1522004166.292321) can0 050#8000880000000000
(1522004166.292564) can0 111#B000080000006000
(1522004166.292809) can0 113#0000020052120000
(1522004166.293049) can0 115#4E0002020000014A
(1522004166.293283) can0 117#F935807C8091807C
(1522004166.293529) can0 118#2212000060000000
(1522004166.293770) can0 119#4305000000000000
(1522004166.294020) can0 121#0000000040000000
(1522004166.294258) can0 122#7D7D3C00F400005E
(1522004166.294507) can0 123#0000300000000000
(1522004166.294751) can0 140#00000000800010A2
(1522004166.294987) can0 229#003B8013000019AD
(1522004166.295227) can0 25C#F8600000021219AD
(1522004166.295464) can0 14A#6BFD18000005FFFF
(1522004166.295695) can0 170#8064806480648064
(1522004166.295938) can0 211#00A0000520000407
(1522004166.296174) can0 253#0208020E7DFB0076
(1522004166.296406) can0 254#918F6D64139E0076
(1522004166.296652) can0 299#0600000000000000
(1522004166.296898) can0 301#B500000000000000
(1522004166.297137) can0 444#01183A3E00009D98
(1522004166.298350) can0 091#00007F087F090001
(1522004166.298830) can0 010#0C630031002080BC
(1522004166.302305) can0 339#153F0050C610C1FD
(1522004166.303874) can0 581#0000FFFFFFFFFFFF
(1522004166.305393) can0 262#08000800F98746D4
(1522004166.305641) can0 263#00000FFF00000FFE
(1522004166.305879) can0 346#FE012B80FD000000
(1522004166.306128) can0 417#0002820000000000
(1522004166.307318) can0 050#8000880000000000
(1522004166.307562) can0 111#B000080000006000
(1522004166.307806) can0 113#0000020052120000
(1522004166.308044) can0 115#4E0002020000014B
(1522004166.308284) can0 117#F935807C8094807C
(1522004166.308529) can0 118#2212000060000000
(1522004166.308771) can0 119#4305000000000000
(1522004166.309015) can0 010#0D3F0031003180BF
(1522004166.309253) can0 122#7D7D3C00F4000062
(1522004166.309502) can0 123#0000300000000000
(1522004166.309742) can0 264#0003948C0C008183
(1522004166.310004) can0 342#0027073F0E003888
(1522004166.310260) can0 344#A5A1B1A846354000
(1522004166.310539) can0 441#806A2A0000000000
(1522004166.312359) can0 121#0000000040000000
(1522004166.312605) can0 140#00000000800010A7
(1522004166.312841) can0 229#003B80130000199C
(1522004166.313084) can0 25C#F86000000212199C
(1522004166.315395) can0 14A#6BFC28000005FFFF
(1522004166.315627) can0 170#8066806480648066
(1522004166.315868) can0 211#00A0000520000407
(1522004166.316108) can0 253#0211020E7DFB007D
(1522004166.316339) can0 254#918F5864239E007B
(1522004166.318045) can0 350#002403DA42FBE39C
(1522004166.318275) can0 04B#D8D8D8D8D8D8C000
(1522004166.318517) can0 091#00007F057F0D0001
(1522004166.318757) can0 340#191A80007F0FBFFF
(1522004166.319001) can0 010#0E400031002080BF
(1522004166.322322) can0 050#8000880000000000
(1522004166.322566) can0 111#B000080000006000
(1522004166.322809) can0 113#0000020052120000
(1522004166.323048) can0 115#4E0002020000014B
(1522004166.323278) can0 117#F935807B8093807B
(1522004166.323529) can0 118#2212000060000000
(1522004166.323765) can0 119#4305000000000000
(1522004166.324005) can0 122#7D7D3C00F4000068
(1522004166.324253) can0 123#0000300000000000
(1522004166.324499) can0 299#0600000000000000
(1522004166.324746) can0 301#B500000000000000
(1522004166.327314) can0 339#153F0050C610C1FD
(1522004166.328022) can0 264#0003848C00000183
(1522004166.328296) can0 494#B424120001850035
(1522004166.328837) can0 010#0F300031002080BF
(1522004166.332324) can0 121#0000000040000000
(1522004166.332575) can0 140#000000008000107F
(1522004166.332811) can0 229#003B80130000196E
(1522004166.333049) can0 25C#F86000000212196E
(1522004166.335419) can0 14A#6BFB38010005FFFF
(1522004166.335658) can0 170#8066806980698066
(1522004166.335888) can0 211#00A0000520000407
(1522004166.336126) can0 253#020B020E7DFB007F
(1522004166.336358) can0 254#918F4864339E007B
(1522004166.336595) can0 262#08000800F98746D5
(1522004166.336842) can0 263#00000FFF00000FFE
(1522004166.337083) can0 346#FD022B80FD000000
(1522004166.337331) can0 050#8000880000000000
(1522004166.337575) can0 111#B000080000006000
(1522004166.337819) can0 113#0000020052120000
(1522004166.338059) can0 115#4E0002020000014C
(1522004166.338303) can0 091#00007F017F090001
(1522004166.338534) can0 117#F935807B8094807B
(1522004166.338778) can0 118#2212000060000000
(1522004166.339022) can0 010#000D0031003180C1
(1522004166.339264) can0 119#4305000000000000
(1522004166.339503) can0 122#7D7D3C00F400006B
(1522004166.339751) can0 123#0000300000000000
(1522004166.339987) can0 342#0027073F0E003888
(1522004166.340235) can0 417#0002820000000000
(1522004166.340466) can0 344#A5A1B1A846354000
(1522004166.342323) can0 4EC#8F22B90000000000
(1522004166.348023) can0 264#0003948C0C00FD83
(1522004166.348802) can0 010#01FD0031003180C1
(1522004166.352331) can0 050#8000880000000000
(1522004166.352565) can0 111#B000080000006000
(1522004166.352806) can0 113#0000020052110000
(1522004166.353046) can0 115#4E0002020000014C
(1522004166.353277) can0 117#F935807780948077
(1522004166.353531) can0 118#2212000060000000
(1522004166.353763) can0 119#4305000000000000
(1522004166.354013) can0 121#0000000040000000
(1522004166.354254) can0 122#7D7D3C00F4000070
(1522004166.354502) can0 123#0000300000000000
(1522004166.354748) can0 140#00000000800010B5
(1522004166.354982) can0 229#003B80130000196A
(1522004166.355220) can0 25C#F86000000212196A
(1522004166.355458) can0 14A#6BFA48010005FFFF
(1522004166.355691) can0 170#806E806E806B806E
(1522004166.355933) can0 211#00A0000520000407
(1522004166.356168) can0 253#0214020E7DFC0086
(1522004166.356396) can0 254#918F3264439E0081
(1522004166.356641) can0 299#0600000000000000
(1522004166.356888) can0 301#B500000000000000
(1522004166.357120) can0 339#153F0052C610C1FD
(1522004166.357371) can0 65A#0000000800000000
(1522004166.358336) can0 091#00007F087F050001
(1522004166.358826) can0 010#02DB0062004180C3
(1522004166.362341) can0 444#01173B3F00009D98
(1522004166.365413) can0 262#08000800FA8747D5
(1522004166.365656) can0 263#00000FFF00000FFE
(1522004166.365896) can0 346#FC032B80FD000000
(1522004166.366144) can0 417#0002820000000000
(1522004166.367313) can0 050#8000880000000000
(1522004166.367562) can0 111#B000080000006000
(1522004166.367805) can0 113#0000020052110000
(1522004166.368040) can0 115#4E00020300000150
(1522004166.368270) can0 117#F935807780958077
(1522004166.368514) can0 118#2212000060000000
(1522004166.368756) can0 119#4305000000000000
(1522004166.368992) can0 010#03DB0062003180C3
(1522004166.369230) can0 122#7D7D3C00F4000073
(1522004166.369478) can0 123#0000300000000000
(1522004166.369719) can0 264#0003848C03000183
(1522004166.369985) can0 342#0007077D0E003888
(1522004166.370245) can0 344#85A1B1A846350000
(1522004166.370511) can0 40A#C100314654595231
(1522004166.370797) can0 441#806A2A0000000000
(1522004166.371068) can0 494#B4A4120001850035
(1522004166.372330) can0 121#0000000040000000
(1522004166.372574) can0 140#00000000800010CE
(1522004166.372810) can0 229#003B801300001949
(1522004166.373049) can0 25C#F860000002121949
(1522004166.375407) can0 14A#6BF958000005FFFF
(1522004166.375652) can0 170#806E806E806B806E
(1522004166.375877) can0 211#00A0000520000407
(1522004166.376116) can0 253#020C020E7DFC0088
(1522004166.376344) can0 254#918F2264539E0081
(1522004166.377312) can0 339#153F0052C610C1FD
(1522004166.378193) can0 091#00007EFE7F0B0001
(1522004166.378797) can0 010#04B90062004180C5
(1522004166.382315) can0 050#8000880000000000
(1522004166.382560) can0 111#B000080000006000
(1522004166.382802) can0 113#0000020052110000
(1522004166.383046) can0 115#4E00020300000150
(1522004166.383274) can0 117#F935807380948073
(1522004166.383527) can0 118#2212000060000000
(1522004166.383774) can0 119#4305000000000000
(1522004166.384002) can0 122#7D7D3C00F4000077
(1522004166.384250) can0 123#0000300000000000
(1522004166.384496) can0 299#0600000000000000
(1522004166.384742) can0 301#B500000000000000
(1522004166.388016) can0 264#0003948C0C00FD83
(1522004166.388256) can0 04A#00D8D8D8FED8D8D8
(1522004166.388488) can0 350#002403DA42F0639C
(1522004166.388829) can0 010#05A90062004180C5
(1522004166.392323) can0 121#0000000040000000
(1522004166.392569) can0 140#000000008000109A
(1522004166.392810) can0 229#003B80130000191F
(1522004166.393049) can0 25C#F86000000212191F
(1522004166.395397) can0 14A#6BF868000005FFFF
(1522004166.395624) can0 170#8073807380758073
(1522004166.395866) can0 211#00A0000520000407
(1522004166.396108) can0 253#0205020F7DFC0088
(1522004166.396334) can0 254#918F0C64639E0087
(1522004166.396573) can0 262#08000800FA8847D5
(1522004166.396821) can0 263#00000FFF00000FFE
(1522004166.397061) can0 346#FB042B80FD000000
(1522004166.397309) can0 417#0002820000000000
(1522004166.397558) can0 050#8000880000000000
(1522004166.397801) can0 111#B000080000006000
(1522004166.398044) can0 113#0000020052110000
(1522004166.398286) can0 091#00007EFA7F0F0001
(1522004166.398526) can0 115#4E00020200000150
(1522004166.398759) can0 117#F935807380958073
(1522004166.398997) can0 010#06960062004180C8
(1522004166.399240) can0 118#2212000060000000
(1522004166.399483) can0 119#4305000000000000
(1522004166.399725) can0 122#7D7D3C00F4000079
(1522004166.399974) can0 123#0000300000000000
(1522004166.400208) can0 342#0027073F8E003888
(1522004166.400468) can0 344#A5A1B1A846354000
(1522004166.402312) can0 339#153F0052C610C1FD
(1522004166.408025) can0 264#0003848C00000183
(1522004166.408296) can0 494#B424120001850035
(1522004166.408812) can0 010#07740062005180CA
(1522004166.412321) can0 050#8000880000000000
(1522004166.412565) can0 111#B000080000006000
(1522004166.412807) can0 113#0000020052110000
(1522004166.413047) can0 115#4E00020200000150
(1522004166.413279) can0 117#F935807380948073
(1522004166.413525) can0 118#2212000060000000
(1522004166.413766) can0 119#4305000000000000
(1522004166.414016) can0 121#0000000040000000
(1522004166.414257) can0 122#7D7D3C00F400007D
(1522004166.414504) can0 123#0000300000000000
(1522004166.414749) can0 140#00000000800010B4
(1522004166.414987) can0 229#003B801300001914
(1522004166.415225) can0 25C#F860000002121914
(1522004166.415466) can0 14A#6BF778010005FFFF
(1522004166.415697) can0 170#8077807580758077
(1522004166.415940) can0 211#00A0000520000407
(1522004166.416178) can0 253#0216020F7DFC0092
(1522004166.416408) can0 254#918FF764739E008C
(1522004166.416653) can0 299#0600000000000000
(1522004166.416899) can0 301#B500000000000000
(1522004166.418296) can0 04B#D8D8D8D8D8D8C000
(1522004166.418539) can0 091#00007F017F110001
(1522004166.418779) can0 340#191A80007F0FBFFF
(1522004166.419016) can0 010#08640062005180CA
(1522004166.425470) can0 262#08010801FA8847D5
(1522004166.425689) can0 263#00000FFF00000FFE
(1522004166.425924) can0 346#FA052B80FD000000
(1522004166.426171) can0 417#0002820000000000
(1522004166.427345) can0 050#8000880000000000
(1522004166.427567) can0 111#B000080000006000
(1522004166.427812) can0 113#0000020052110000
(1522004166.428051) can0 115#4E00020100000150
(1522004166.428281) can0 117#F935807380928073
(1522004166.428520) can0 118#2212000060000000
(1522004166.428764) can0 119#4305000000000000
(1522004166.429001) can0 010#09520062005180CC
(1522004166.429243) can0 122#7D7D3C00F400007F
(1522004166.429494) can0 123#0000300000000000
(1522004166.429737) can0 264#0003848C00000183
(1522004166.429969) can0 339#153F0052C610C1FD
(1522004166.430207) can0 342#0007073D0E003888
(1522004166.430466) can0 344#A5A1B1A846350000
(1522004166.430746) can0 441#806A2A0000000000
(1522004166.432332) can0 121#0000000040000000
(1522004166.432575) can0 140#000000008000108A
(1522004166.432813) can0 229#003B8013000018F0
(1522004166.433053) can0 25C#F8600000021218F0
(1522004166.433295) can0 444#01173B3F00009D98
(1522004166.435401) can0 14A#6BF688020005FFFF
(1522004166.435636) can0 170#80778077807A8077
(1522004166.435878) can0 211#00A0000520000407
(1522004166.436116) can0 253#020D020E7DFC0094
(1522004166.436349) can0 254#918FE764839E008C
(1522004166.438166) can0 091#00007F057F130001
(1522004166.438812) can0 010#0A2E0062006280CF
(1522004166.442320) can0 050#8000880000000000
(1522004166.442563) can0 111#B000080000006000
(1522004166.442805) can0 113#0000020052110000
(1522004166.443044) can0 115#4E00020100000150
(1522004166.443275) can0 117#F935807380928073
(1522004166.443528) can0 118#2212000060000000
(1522004166.443761) can0 119#4305000000000000
(1522004166.444003) can0 122#7D7D3C00F4000083
(1522004166.444249) can0 123#0000300000000000
(1522004166.444498) can0 299#0600000000000000
(1522004166.444743) can0 301#B500000000000000
(1522004166.445021) can0 4EC#8F22B90000000000
(1522004166.448024) can0 264#0003948C0C00FD83
(1522004166.448294) can0 494#B424120001850035
(1522004166.448808) can0 010#0B2F0062005180CF
(1522004166.452337) can0 121#0000000040000000
(1522004166.452581) can0 140#000000008000106C
(1522004166.452821) can0 229#003B8013000018CA
(1522004166.453060) can0 25C#F8600000021218CA
(1522004166.453298) can0 339#153F0055C610C1FD
(1522004166.455398) can0 14A#6BF598020005FFFF
(1522004166.455644) can0 170#807F807C807C807F
(1522004166.455879) can0 211#00A0000520000407
(1522004166.456120) can0 253#0212020F7DFC0099
(1522004166.456349) can0 254#918FCC64939E0097
(1522004166.456583) can0 262#08010801FB8848D6
(1522004166.456831) can0 263#00000FFF00000FFE
(1522004166.457071) can0 346#F9062B80FD000000
(1522004166.457318) can0 417#0002820000000000
(1522004166.457566) can0 050#8000880000000000
(1522004166.457810) can0 111#B000080000006000
(1522004166.458055) can0 113#0000020052110000
(1522004166.458294) can0 091#00007F057F0F0001
(1522004166.458534) can0 115#4E00020100000153
(1522004166.458766) can0 117#F9358073808F8073
(1522004166.459007) can0 010#0C0C0062006280D1
(1522004166.459251) can0 118#2212000060000000
(1522004166.459493) can0 119#4305000000000000
(1522004166.459733) can0 122#7D7D3C00F4000084
(1522004166.459982) can0 123#0000300000000000
(1522004166.460220) can0 342#0027077F0E003888
(1522004166.460468) can0 65A#0000000800000000
(1522004166.460697) can0 344#A5A1B1A846354000
(1522004166.460964) can0 350#002403DA42F0639C
(1522004166.468019) can0 264#0003848C03000183
(1522004166.468796) can0 010#0D0D0062005180D1
(1522004166.472318) can0 050#8000880000000000
(1522004166.472562) can0 111#B000080000006000
(1522004166.472811) can0 113#0000020052100000
(1522004166.473046) can0 115#4E00020100000153
(1522004166.473278) can0 117#F9358070808F8070
(1522004166.473527) can0 118#2211000060000000
(1522004166.473763) can0 119#4305000000000000
(1522004166.474013) can0 121#0000000040000000
(1522004166.474251) can0 122#7D7D3C00F400008A
(1522004166.474499) can0 123#0000300000000000
(1522004166.474747) can0 140#000000008000106F
(1522004166.474986) can0 229#003B8013000018C5
(1522004166.475226) can0 25C#F8600000021118C5
(1522004166.475463) can0 14A#6BF4A8020005FFFF
(1522004166.475704) can0 170#807F807C807C807F
(1522004166.475947) can0 211#00A0000520000407
(1522004166.476182) can0 253#021102107DFC009E
(1522004166.476411) can0 254#918FBC64A39E0097
(1522004166.476656) can0 299#0600000000000000
(1522004166.476903) can0 301#B500000000000000
(1522004166.477305) can0 339#153F0055C610C1FD
(1522004166.478299) can0 091#00007F017F0F0001
(1522004166.478811) can0 010#0EEA0062006280D3
(1522004166.485421) can0 262#08010801FB8948D6
(1522004166.485668) can0 263#00000FFF00000FFE
(1522004166.485906) can0 346#F8072B80FD000000
(1522004166.486154) can0 417#0002820000000000
(1522004166.487319) can0 050#8000880000000000
(1522004166.487563) can0 111#B000080000006000
(1522004166.487817) can0 113#0000020052100000
(1522004166.488045) can0 115#4E00020100000154
(1522004166.488277) can0 04A#00D8D8D8FED8D8D8
(1522004166.488512) can0 117#F9358070808B8070
(1522004166.488751) can0 118#2211000060000000
(1522004166.488989) can0 010#0FEB0062005180D3
(1522004166.489231) can0 119#4305000000000000
(1522004166.489468) can0 122#7D7D3C00F400008C
(1522004166.489717) can0 123#0000300000000000
(1522004166.489963) can0 264#0003948C0C00FD83
(1522004166.490220) can0 342#0027073F0E003888
(1522004166.490476) can0 344#85A1B1A846354000
(1522004166.490743) can0 40A#C1015A4D32484B41
(1522004166.491021) can0 441#806A2A0000000000
(1522004166.491298) can0 494#B4A4120001850035
(1522004166.492335) can0 121#0000000040000000
(1522004166.492579) can0 140#0000000080001086
(1522004166.492816) can0 229#003B8013000018B2
(1522004166.493053) can0 25C#F8600000021118B2
(1522004166.495435) can0 14A#6BF3B8020005FFFF
(1522004166.495672) can0 170#8084808480848084
(1522004166.495903) can0 211#00A0000520000407
(1522004166.496138) can0 253#020702107DFB009E
(1522004166.496366) can0 254#918FA664B39E009D
(1522004166.498142) can0 091#00007F017F130001
(1522004166.498798) can0 010#00D90062005180D5
(1522004166.502318) can0 050#8000880000000000
(1522004166.502561) can0 111#B000080000006000
(1522004166.502805) can0 113#0000020052100000
(1522004166.503043) can0 115#4E00020100000154
(1522004166.503276) can0 117#F9358070808B8070
(1522004166.503519) can0 118#2211000060000000
(1522004166.503771) can0 119#4305000000000000
(1522004166.504000) can0 122#7D7D3C00F4000090
(1522004166.504246) can0 123#0000300000000000
(1522004166.504492) can0 299#0600000000000000
(1522004166.504738) can0 301#B500000000000000
(1522004166.504970) can0 339#153F0055C610C1FD
(1522004166.505208) can0 444#01173B4000009D98
(1522004166.508020) can0 264#0003848C00000183
(1522004166.508800) can0 010#01C90062005180D5
(1522004166.512331) can0 121#0000000040000000
(1522004166.512571) can0 140#0000000080001068
(1522004166.512809) can0 229#003B801300001892
(1522004166.513049) can0 25C#F860000002111892
(1522004166.515397) can0 14A#6BF2C8020005FFFF
(1522004166.515620) can0 170#8086808480848086
(1522004166.515864) can0 211#00A0000520000407
(1522004166.516097) can0 253#021102107DFB00A5
(1522004166.516331) can0 254#918F9064C39E00A3
(1522004166.516565) can0 262#08010801FB8948D6
(1522004166.516814) can0 263#00000FFF00000FFE
(1522004166.517052) can0 346#F7082B80FD000000
(1522004166.517299) can0 417#0002820000000000
(1522004166.517548) can0 050#8000880000000000
(1522004166.517792) can0 111#B000080000006000
(1522004166.518037) can0 113#0000020052100000
(1522004166.518266) can0 04B#D8D8D8D8D8D8C000
(1522004166.518508) can0 091#00007F057F110001
(1522004166.518747) can0 115#4E00020100000155
(1522004166.518989) can0 010#02B60062005180D8
(1522004166.519219) can0 117#F935807080888070
(1522004166.519461) can0 118#2211000060000000
(1522004166.519706) can0 119#4305000000000000
(1522004166.519942) can0 122#7D7D3C00F4000092
(1522004166.520190) can0 123#0000300000000000
(1522004166.520430) can0 340#191A80007F0FBFFF
(1522004166.520670) can0 342#0007073D0E003888
(1522004166.520930) can0 344#A5A1B1A846350000
(1522004166.521211) can0 400#1700000100010000
(1522004166.521490) can0 405#0000000000000000
(1522004166.527309) can0 339#153F0055C610C1FD
(1522004166.528046) can0 264#0003948C0C008183
(1522004166.528310) can0 350#000003DA42F0E39C
(1522004166.528589) can0 494#B424120001850035
(1522004166.528828) can0 010#03A40062005180DA
(1522004166.532321) can0 050#8000880000000000
(1522004166.532564) can0 111#B000080000006000
(1522004166.532809) can0 113#0000020052100000
(1522004166.533047) can0 115#4E00020100000155
(1522004166.533281) can0 117#F935806F8088806F
(1522004166.533530) can0 118#2211000060000000
(1522004166.533767) can0 119#4305000000000000
(1522004166.534016) can0 121#0000000040000000
(1522004166.534253) can0 122#7D7D3C00F4000097
(1522004166.534502) can0 123#0000300000000000
(1522004166.534749) can0 140#00000000800010A4
(1522004166.534989) can0 229#003B80130000188B
(1522004166.535228) can0 25C#F86000000211188B
(1522004166.535464) can0 14A#6BF1D8030005FFFF
(1522004166.535702) can0 170#808980898089808B
(1522004166.535941) can0 211#00A0000520000407
(1522004166.536181) can0 253#0209020F7DFB00A6
(1522004166.536416) can0 254#918F8064D39E00A3
(1522004166.536659) can0 299#0600000000000000
(1522004166.536907) can0 301#B500000000000000
(1522004166.538272) can0 091#00007EFA7F0F0001
(1522004166.538795) can0 010#04940062005180DA
(1522004166.542312) can0 4EC#8F22B90000000000
(1522004166.545394) can0 262#08010801FC8949D7
(1522004166.545641) can0 263#00000FFF00000FFE
(1522004166.545879) can0 346#F6092B80FD000000
(1522004166.546127) can0 417#0002820000000000
(1522004166.547318) can0 050#8000880000000000
(1522004166.547561) can0 111#B000080000006000
(1522004166.547807) can0 113#00000200520F0000
(1522004166.548047) can0 115#4E00020100000157
(1522004166.548280) can0 117#F935806C8085806C
(1522004166.548523) can0 118#2211000060000000
(1522004166.548764) can0 119#4305000000000000
(1522004166.549004) can0 010#05820062005180DC
(1522004166.549242) can0 122#7D7D3C00F4000099
(1522004166.549491) can0 123#0000300000000000
(1522004166.549733) can0 264#0003848C02007D83
(1522004166.549995) can0 342#0027073F0E003888
(1522004166.550251) can0 344#A5A1B1A846354000
(1522004166.550536) can0 441#806A2A0000000000
(1522004166.552329) can0 121#0000000040000000
(1522004166.552573) can0 140#00000000800010A8
(1522004166.552808) can0 229#003B801300001867
(1522004166.553047) can0 25C#F860000002111867
(1522004166.553280) can0 339#153F0056C610C1FD
(1522004166.555425) can0 14A#6BF0E8020005FFFF
(1522004166.555653) can0 170#808E808B8089808E
(1522004166.555894) can0 211#00A0000520000407
(1522004166.556131) can0 253#0215020E7DFA00AF
(1522004166.556359) can0 254#918F6B64E39E00A8
(1522004166.556607) can0 65A#0000000800000000
(1522004166.558128) can0 091#00007EF77F0F0001
(1522004166.558815) can0 010#06720062005180DC
(1522004166.562316) can0 050#8000880000000000
(1522004166.562559) can0 111#B000080000006000
(1522004166.562802) can0 113#0000020052160000
(1522004166.563042) can0 115#4E00020100000157
(1522004166.563273) can0 117#F935806D8085808D
(1522004166.563521) can0 118#2210000060000000
(1522004166.563761) can0 119#4305000000000000
(1522004166.563997) can0 122#7D823C20F400009D
(1522004166.564246) can0 123#0000300000000000
(1522004166.564491) can0 299#0600000000000000
(1522004166.564739) can0 301#B500000000000000
(1522004166.568023) can0 264#0003948C0D008183
(1522004166.568292) can0 494#B4A4120001850035
(1522004166.568825) can0 010#07600062005180DE
(1522004166.572324) can0 121#0000000040000000
(1522004166.572571) can0 140#00000000800010A6
(1522004166.572812) can0 229#003B80130000183D
(1522004166.573057) can0 25C#F86000000212183D
(1522004166.573295) can0 444#01173C4100009D98
(1522004166.575412) can0 14A#6BEFF8010005FFFF
(1522004166.575636) can0 170#8090809080908090
(1522004166.575879) can0 211#00A0000520000407
(1522004166.576119) can0 253#020B020E7DFA00B0
(1522004166.576345) can0 254#918F5B64F39E00A8
(1522004166.576579) can0 262#08010801FC8A49D7
(1522004166.576827) can0 263#00000FFF00000FFE
(1522004166.577063) can0 346#F50A2B80FD000000
(1522004166.577311) can0 417#0002820000000000
(1522004166.577559) can0 050#8000880000000000
(1522004166.577804) can0 111#B000080000006000
(1522004166.578048) can0 113#0000020052200000
(1522004166.578287) can0 091#00007EF47F110001
(1522004166.578526) can0 115#4E00020100000158
(1522004166.578760) can0 117#F935806C808380BD
(1522004166.578999) can0 010#08500062005180DE
(1522004166.579242) can0 118#2212000060000000
(1522004166.579484) can0 119#4305000000000000
(1522004166.579718) can0 122#7D7F3C32F400009F
(1522004166.579967) can0 123#0000300000000000
(1522004166.580201) can0 339#153F0056C610C1FD
(1522004166.580441) can0 342#0007077D0E003888
(1522004166.580701) can0 344#A5A1B1A846350000
(1522004166.588021) can0 264#0003848C00007D83
(1522004166.588252) can0 04A#00D8D8D8FED8D8D8
(1522004166.588799) can0 010#093D0062005180E1
(1522004166.592327) can0 050#8000880000000000
(1522004166.592572) can0 111#B000080000006000
(1522004166.592813) can0 113#00000200522B0000
(1522004166.593051) can0 115#4E00020100000158
(1522004166.593286) can0 117#F935806D808D80F5
(1522004166.593536) can0 118#2212000060000000
(1522004166.593772) can0 119#4305000000000000
(1522004166.594025) can0 121#0000000040000000
(1522004166.594254) can0 122#7D803C46F40000A1
(1522004166.594502) can0 123#0000300000000000
(1522004166.594751) can0 140#000000008000106F
(1522004166.594988) can0 229#003B801300001829
(1522004166.595228) can0 25C#F860000002121829
(1522004166.595469) can0 14A#6BFE08020005FFFF
(1522004166.595701) can0 170#8095809380908095
(1522004166.595944) can0 211#00A0000520000407
(1522004166.596182) can0 253#0215020E7DFA00B8
(1522004166.596410) can0 254#918F4564039E00AE
(1522004166.596656) can0 299#0600000000000000
(1522004166.596903) can0 301#B500000000000000
(1522004166.598039) can0 350#002403DA42E1639C
(1522004166.598280) can0 091#00007EFA7F0F0001
(1522004166.598811) can0 010#0A2D0062005180E1
(1522004166.602308) can0 339#153F0056C610C1FD
(1522004166.605384) can0 262#08010801FC8A49D7
(1522004166.605626) can0 263#00000FFF00000FFE
(1522004166.605864) can0 346#F40B2B80FD000000
(1522004166.606111) can0 417#0002820000000000
(1522004166.607319) can0 050#8000880000000000
(1522004166.607562) can0 111#B000080000006000
(1522004166.607818) can0 113#0000020052370000
(1522004166.608046) can0 115#4E00020000000156
(1522004166.608276) can0 117#F9358066808C8133
(1522004166.608521) can0 118#2213000060000000
(1522004166.608763) can0 119#4305000000000000
(1522004166.609000) can0 010#0B2D0062004180E1
(1522004166.609235) can0 122#7D803C5BF40000A3
(1522004166.609486) can0 123#0000300000000000
(1522004166.609726) can0 264#0003848C00000183
(1522004166.609987) can0 342#0027073F0E003888
(1522004166.610242) can0 344#85A1B1A846354000
(1522004166.610509) can0 40A#C102393937383100
(1522004166.610790) can0 441#806A2A0000000000
(1522004166.611060) can0 494#B424120001850035
(1522004166.612333) can0 121#0000000040000000
(1522004166.612579) can0 140#0000000080001081
(1522004166.612817) can0 229#003B80130000180C
(1522004166.613059) can0 25C#F86000000213180C
(1522004166.615396) can0 14A#6BFD18020005FFFF
(1522004166.615622) can0 170#8097809780978097
(1522004166.615864) can0 211#00A0000520000407
(1522004166.616100) can0 253#020B020E7DFA00B9
(1522004166.616330) can0 254#918F2F64139E00B4
(1522004166.618092) can0 04B#D8D8D8D8D8D8C000
(1522004166.618334) can0 091#00007F017F110001
(1522004166.618573) can0 340#191A80007F0FBFFF
(1522004166.618859) can0 010#0C1B0031004180E3
(1522004166.622317) can0 050#8000880000000000
(1522004166.622560) can0 111#B000080000006000
(1522004166.622803) can0 113#0000020052430000
(1522004166.623043) can0 115#4E00020000000156
(1522004166.623275) can0 117#F935806680918171
(1522004166.623522) can0 118#2213000060000000
(1522004166.623761) can0 119#4305000000000000
(1522004166.623994) can0 122#7D803C70F40000A7
(1522004166.624243) can0 123#0000300000000000
(1522004166.624488) can0 299#0600000000000000
(1522004166.624736) can0 301#B500000000000000
(1522004166.627309) can0 339#153F0056C610C1FD
(1522004166.628023) can0 264#0003948C0E008183
(1522004166.628800) can0 010#0D0B0031004180E3
(1522004166.632322) can0 121#0000000040000000
(1522004166.632570) can0 140#0000000080001065
(1522004166.632810) can0 229#003B8013000017E0
(1522004166.633053) can0 25C#F8600000021817E0
(1522004166.635421) can0 14A#6BFC28020005FFFF
(1522004166.635648) can0 170#809A809A8097809A
(1522004166.635890) can0 211#00A0000520000407
(1522004166.636130) can0 253#0211020F7DFB00BF
(1522004166.636358) can0 254#918F1A64239E00B9
(1522004166.636593) can0 262#08010801FD8A4AD8
(1522004166.636842) can0 263#00000FFF00000FFE
(1522004166.637075) can0 346#F30C2B80FD000000
(1522004166.637323) can0 050#8000880000000000
(1522004166.637567) can0 111#B000080000006000
(1522004166.637815) can0 113#0000020052520000
(1522004166.638056) can0 115#4E0002020000015B
(1522004166.638302) can0 091#00007F017F0F0001
(1522004166.638534) can0 117#F9358065809081B9
(1522004166.638781) can0 118#2218000060000000
(1522004166.639021) can0 010#0EF90062004180E5
(1522004166.639262) can0 119#4305000000000000
(1522004166.639499) can0 122#7D803C83F40000A9
(1522004166.639747) can0 123#0000300000000000
(1522004166.639984) can0 342#0027073F0E003888
(1522004166.640232) can0 417#0002820000000000
(1522004166.640460) can0 344#A5A1B1A846344000
(1522004166.642317) can0 444#01173D4200009D98
(1522004166.642554) can0 4EC#8F22B90000000000
(1522004166.648030) can0 264#0003848C00007D83
(1522004166.648300) can0 494#B424120001850035
(1522004166.648819) can0 010#0FE90062004180E5
(1522004166.652320) can0 050#8000880000000000
(1522004166.652564) can0 111#B000080000006000
(1522004166.652807) can0 113#00000200525E0000
(1522004166.653050) can0 115#4E0002020000015B
(1522004166.653282) can0 117#F935806580AD81F6
(1522004166.653528) can0 118#2219000060000000
(1522004166.653768) can0 119#4305000000000000
(1522004166.654019) can0 121#0000000040000000
(1522004166.654250) can0 122#7D7F3C94F40000AE
(1522004166.654499) can0 123#0000300000000000
(1522004166.654745) can0 140#000000008000106D
(1522004166.654985) can0 229#003B8013000017D8
(1522004166.655227) can0 25C#F8600000021917D8
(1522004166.655465) can0 14A#6BFB38030005FFFF
(1522004166.655713) can0 170#809D809F809F809D
(1522004166.655944) can0 211#00A0000520000407
(1522004166.656184) can0 253#0209020F7DFB00C0
(1522004166.656412) can0 254#918F0A64339E00B9
(1522004166.656659) can0 299#0600000000000000
(1522004166.656905) can0 301#B500000000000000
(1522004166.657137) can0 339#153F0059C610C1FD
(1522004166.657385) can0 65A#0000000800000000
(1522004166.658233) can0 091#00007F017F0D0001
(1522004166.658803) can0 010#00D60062004180E8
(1522004166.665380) can0 262#08010801FD8B4AD8
(1522004166.665625) can0 263#00000FFF00000FFE
(1522004166.665861) can0 346#F20D2B80FD000000
(1522004166.666109) can0 417#0002820000000000
(1522004166.667315) can0 050#8000880000000000
(1522004166.667559) can0 111#B000080000006000
(1522004166.667801) can0 113#0000020052680000
(1522004166.668042) can0 115#4E0002020000015C
(1522004166.668277) can0 117#F935806580AF8228
(1522004166.668518) can0 118#222A000060000000
(1522004166.668760) can0 119#4305000000000000
(1522004166.669002) can0 010#01C60062004180E8
(1522004166.669239) can0 122#7D7F3CA1F40000B0
(1522004166.669487) can0 123#0000300000000000
(1522004166.669725) can0 264#0003948C0D008183
(1522004166.669991) can0 342#0007077D0E003888
(1522004166.670249) can0 344#A5A1B1A846340000
(1522004166.670509) can0 350#002403DA42E1E39C
(1522004166.670789) can0 441#806A2A0000000000
(1522004166.672337) can0 121#0000000040000000
(1522004166.672583) can0 140#0000000080001082
(1522004166.672822) can0 229#003B8013000017CB
(1522004166.673064) can0 25C#F8600000022A17CB
(1522004166.675398) can0 14A#6BFA48010005FFFF
(1522004166.675625) can0 170#80A1809F809F80A1
(1522004166.675867) can0 211#00A0000520000407
(1522004166.676101) can0 253#021202107DFB00C7
(1522004166.676330) can0 254#918FEF64439E00C4
(1522004166.677310) can0 339#153F0059C610C1FD
(1522004166.678129) can0 091#00007F057F0F0001
(1522004166.678801) can0 010#02B40062004180EA
(1522004166.682314) can0 050#8000880000000000
(1522004166.682558) can0 111#B000080000006000
(1522004166.682804) can0 113#0000020052700000
(1522004166.683045) can0 115#4E0002020000015C
(1522004166.683278) can0 117#F9358065810F824E
(1522004166.683522) can0 118#222A000060000000
(1522004166.683762) can0 119#4305000000000000
(1522004166.683997) can0 122#7D7E3CABF40000B4
(1522004166.684245) can0 123#0000300000000000
(1522004166.684491) can0 299#0600000000000000
(1522004166.684736) can0 301#B500000000000000
(1522004166.688026) can0 264#0003848C00007D83
(1522004166.688258) can0 04A#00D8D8D8FED8D8D8
(1522004166.688494) can0 494#B4A4120001850035
(1522004166.688832) can0 010#03A40062004180EA
(1522004166.692323) can0 121#0000000040000000
(1522004166.692572) can0 140#000000008000107F
(1522004166.692810) can0 229#003B801300001797
(1522004166.693051) can0 25C#F8600000023A1797
(1522004166.695426) can0 14A#6BF958010005FFFF
(1522004166.695651) can0 170#80A480A480A680A6
(1522004166.695893) can0 211#00A0000520000407
(1522004166.696129) can0 253#020A02107DFB00C8
(1522004166.696360) can0 254#918FDF64539E00C4
(1522004166.696595) can0 262#08010801FE8B4BD9
(1522004166.696842) can0 263#00000FFF00000FFE
(1522004166.697080) can0 346#F10E2B80FD000000
(1522004166.697328) can0 050#8000880000000000
(1522004166.697574) can0 111#B000080000006000
(1522004166.697815) can0 113#0000020052760000
(1522004166.698053) can0 115#4E0002020000015E
(1522004166.698295) can0 091#00007F057F0F0001
(1522004166.698524) can0 117#F9358065810D826C
(1522004166.698769) can0 118#223A000060000000
(1522004166.699012) can0 010#04820062005180EC
(1522004166.699253) can0 119#4305000000000000
(1522004166.699487) can0 122#7D7E3CB3F40000B7
(1522004166.699735) can0 123#0000300000000000
(1522004166.699972) can0 342#0027073F0E003888
(1522004166.700220) can0 417#0002820000000000
(1522004166.700448) can0 344#A5A1B1A846344000
(1522004166.702311) can0 339#153F0059C610C1FD
(1522004166.708027) can0 264#0003948C0E008183
(1522004166.708800) can0 010#05700062005180EE
(1522004166.712418) can0 050#8000880000000000
(1522004166.712662) can0 111#B000080000006000
(1522004166.712905) can0 113#00000200527B0000
(1522004166.713148) can0 115#4E00020400000165
(1522004166.713378) can0 117#F935806581668284
(1522004166.713629) can0 118#223A000060000000
(1522004166.713865) can0 119#4305000000000000
(1522004166.714115) can0 121#0000000040000000
(1522004166.714349) can0 122#7D7E3CB9F40000BB
(1522004166.714598) can0 123#0000300000000000
(1522004166.714843) can0 140#0000000080001083
(1522004166.715081) can0 229#003B801300001791
(1522004166.715322) can0 25C#F8600000023A1791
(1522004166.715558) can0 14A#6BF868020005FFFF
(1522004166.715792) can0 170#80A680A680A680A6
(1522004166.716032) can0 211#00A0000520000407
(1522004166.716268) can0 253#021002107DFB00CE
(1522004166.716496) can0 254#918FC964639E00CA
(1522004166.716744) can0 299#0600000000000000
(1522004166.716993) can0 301#B600000000000000
(1522004166.717227) can0 444#01173D4200009D98
(1522004166.718194) can0 04B#D8D8D8D8D8D8C000
(1522004166.718437) can0 091#00007F087F090001
(1522004166.718677) can0 340#191A80007F0FBFFF
(1522004166.718913) can0 010#064C00A3006280F1
(1522004166.725396) can0 262#08010801FE8C4BD9
(1522004166.725638) can0 263#00000FFF00000FFE
(1522004166.725878) can0 346#F00F2B80FD000000
(1522004166.726127) can0 417#0002820000000000
(1522004166.727317) can0 050#8000880000000000
(1522004166.727560) can0 111#B000080000006000
(1522004166.727816) can0 113#00000200527F0000
(1522004166.728047) can0 115#4E00020400000165
(1522004166.728278) can0 117#F93580648165829A
(1522004166.728521) can0 118#2249000060000000
(1522004166.728762) can0 119#4305000000000000
(1522004166.728999) can0 010#073A00A3006280F3
(1522004166.729250) can0 122#7D7D3CBFF40000BD
(1522004166.729483) can0 123#0000300000000000
(1522004166.729725) can0 264#0003848C00000183
(1522004166.729958) can0 339#153F0059C610C1FD
(1522004166.730198) can0 342#0007073D0E003888
(1522004166.730466) can0 344#85A1B1A846340000
(1522004166.730730) can0 40A#C103488032880911
(1522004166.731010) can0 441#806A2A0000000000
(1522004166.731278) can0 494#B424120001850035
(1522004166.732331) can0 121#0000000040000000
(1522004166.732579) can0 140#000000008000107C
(1522004166.732815) can0 229#003B80130000177B
(1522004166.733053) can0 25C#F86000000249177B
(1522004166.735394) can0 14A#6BF778010005FFFF
(1522004166.735621) can0 170#80AB80AB80AB80AB
(1522004166.735862) can0 211#00A0000520000407
(1522004166.736098) can0 253#020B02107DFB00D0
(1522004166.736326) can0 254#918FB964739E00CA
(1522004166.738043) can0 350#002403DA42E1639C
(1522004166.738285) can0 091#00007F057F0F0001
(1522004166.738796) can0 010#082A00A3006280F3
(1522004166.742318) can0 050#8000880000000000
(1522004166.742562) can0 111#B000080000006000
(1522004166.742810) can0 113#0000020052820000
(1522004166.743048) can0 115#4E0002060000016B
(1522004166.743280) can0 117#F935806481BE82AB
(1522004166.743526) can0 118#224B000060000000
(1522004166.743766) can0 119#4305000000000000
(1522004166.744002) can0 122#7D7D3CC4F40000C1
(1522004166.744249) can0 123#0000300000000000
(1522004166.744495) can0 299#0600000000000000
(1522004166.744745) can0 301#B600000000000000
(1522004166.744986) can0 4EC#8F22B90000000000
(1522004166.748026) can0 264#0003948C0C00FD83
(1522004166.748815) can0 010#09180062006280F5
(1522004166.752319) can0 121#0000000040000000
(1522004166.752571) can0 140#000000008000107D
(1522004166.752805) can0 229#003B801300001759
(1522004166.753045) can0 25C#F8600000025C1759
(1522004166.753277) can0 339#153F005CC610C1FD
(1522004166.755398) can0 14A#6BF688010005FFFF
(1522004166.755623) can0 170#80AE80AB80AE80AE
(1522004166.755866) can0 211#00A0000520000407
(1522004166.756100) can0 253#021102107DFB00D6
(1522004166.756332) can0 254#918FA364839E00D0
(1522004166.756568) can0 262#08010801FE8C4BD9
(1522004166.756816) can0 263#00000FFF00000FFE
(1522004166.757056) can0 346#FF002B80FD000000
(1522004166.757304) can0 417#0002820000000000
(1522004166.757553) can0 050#8000880000000000
(1522004166.757798) can0 111#B000080000006000
(1522004166.758041) can0 113#0000020052860000
(1522004166.758283) can0 091#00007F057F150001
(1522004166.758521) can0 115#4E0002060000016B
(1522004166.758754) can0 117#F935806281C582BB
(1522004166.758999) can0 010#0A080062006280F5
(1522004166.759243) can0 118#225C000060000000
(1522004166.759486) can0 119#4305000000000000
(1522004166.759729) can0 122#7D7D3CC8F40000C2
(1522004166.759966) can0 123#0000300000000000
(1522004166.760204) can0 342#0027077F0E003888
(1522004166.760453) can0 65A#0000000800000000
(1522004166.760680) can0 344#A5A1B1A846344000
(1522004166.768027) can0 264#0003848C01000183
(1522004166.768311) can0 400#1800000000000000
(1522004166.768570) can0 405#124B413939373831
(1522004166.768829) can0 010#0BF50062006280F8
(1522004166.769062) can0 494#B4A4120001850035
(1522004166.772320) can0 050#8000880000000000
(1522004166.772563) can0 111#B000080000006000
(1522004166.772807) can0 113#0000020052880000
(1522004166.773047) can0 115#4E00020C0000017B
(1522004166.773279) can0 117#F9358063821E82C7
(1522004166.773526) can0 118#225C000060000000
(1522004166.773766) can0 119#4305000000000000
(1522004166.774016) can0 121#0000000040000000
(1522004166.774252) can0 122#7D7D3CCCF40000C6
(1522004166.774501) can0 123#0000300000000000
(1522004166.774745) can0 140#000000008000108A
(1522004166.774981) can0 229#003B801300001751
(1522004166.775221) can0 25C#F8600000025C1751
(1522004166.775459) can0 14A#6BF598030005FFFF
(1522004166.775704) can0 170#80B280B280B280B2
(1522004166.775933) can0 211#00A0000520000407
(1522004166.776170) can0 253#021002107DFB00DA
(1522004166.776398) can0 254#918F8E64939E00D5
(1522004166.776645) can0 299#0600000000000000
(1522004166.776894) can0 301#B600000000000000
(1522004166.777309) can0 339#153F005CC610C1FD
(1522004166.778191) can0 091#00007F057F150001
(1522004166.778813) can0 010#0CD30062007280FA
(1522004166.782307) can0 444#01173F4400009D98
(1522004166.785389) can0 262#08010801FF8C4CDA
(1522004166.785635) can0 263#00000FFF00000FFE
(1522004166.785873) can0 346#FE012B80FD000000
(1522004166.786122) can0 417#0002820000000000
(1522004166.787327) can0 050#8000880000000000
(1522004166.787568) can0 111#B000080000006000
(1522004166.787810) can0 113#00000200528B0000
(1522004166.788043) can0 04A#00D8D8D8FED8D8D8
(1522004166.788283) can0 115#4E00020C0000017B
(1522004166.788512) can0 117#F9358059821D82D3
(1522004166.788757) can0 118#226E000060000000
(1522004166.788995) can0 010#0DC100A3007280FC
(1522004166.789237) can0 119#4305000000000000
(1522004166.789472) can0 122#7D7D3CCFF40000C9
(1522004166.789721) can0 123#0000300000000000
(1522004166.789963) can0 264#0003848C00007D83
(1522004166.790225) can0 342#0027073F0E003888
(1522004166.790482) can0 344#A5A1B1A846344000
(1522004166.790761) can0 441#806A2A0000000000
(1522004166.792329) can0 121#0000000040000000
(1522004166.792575) can0 140#0000000080001098
(1522004166.792810) can0 229#003B801300001753
(1522004166.793048) can0 25C#F8600000026E1753
(1522004166.795386) can0 14A#6BF4A8040005FFFF
(1522004166.795612) can0 170#80B280B580B780B5
(1522004166.795854) can0 211#00A0000520000407
(1522004166.796087) can0 253#020E02117DFA00DE
(1522004166.796316) can0 254#918F7864A39E00DB
(1522004166.798054) can0 091#00007F057F150001
(1522004166.798796) can0 010#0EAF00A3007280FE
(1522004166.802315) can0 050#8000880000000000
(1522004166.802558) can0 111#B000080000006000
(1522004166.802805) can0 113#00000200528C0000
(1522004166.803042) can0 115#4E00021400000192
(1522004166.803275) can0 117#F935804A828482DB
(1522004166.803519) can0 118#227F000060000000
(1522004166.803759) can0 119#4305000000000000
(1522004166.803992) can0 122#7D7D3CD2F40000CD
(1522004166.804239) can0 123#0000300000000000
(1522004166.804485) can0 299#0600000000000000
(1522004166.804736) can0 301#B600000000000000
(1522004166.804968) can0 339#153F005CC610C1FD
(1522004166.808023) can0 264#0003948C0E008183
(1522004166.808282) can0 350#002403DA42E1639C
(1522004166.808551) can0 494#B424120001850035
(1522004166.808831) can0 010#0F9B00A300728101
(1522004166.812330) can0 121#0000000040000000
(1522004166.812573) can0 140#0000000080001099
(1522004166.812810) can0 229#003B801300001737
(1522004166.813050) can0 25C#F8600000027F1737
(1522004166.815373) can0 14A#6BF3B8040005FFFF
(1522004166.815598) can0 170#80BA80B780BA80BA
(1522004166.815852) can0 211#00A0000520000407
(1522004166.816079) can0 253#020F02107DFA00E2
(1522004166.816307) can0 254#918F6264B39E00E1
(1522004166.816546) can0 262#08010801FF8D4CDA
(1522004166.816792) can0 263#00000FFF00000FFE
(1522004166.817033) can0 346#FD022B80FD000000
(1522004166.817281) can0 417#0002820000000000
(1522004166.817530) can0 050#8000880000000000
(1522004166.817774) can0 111#B000080000006000
(1522004166.818018) can0 113#00000200528E0000
(1522004166.818248) can0 04B#D8D8D8D8D8D8C000
(1522004166.818488) can0 091#00007F087F150001
(1522004166.818729) can0 115#4E00021C000001AB
(1522004166.818964) can0 010#009B00A300628101
(1522004166.819198) can0 117#F935804982E082E2
(1522004166.819443) can0 118#227F000060000000
(1522004166.819685) can0 119#4305000000000000
(1522004166.819919) can0 122#7D7D3CD3F40000CF
(1522004166.820167) can0 123#0000300000000000
(1522004166.820407) can0 340#191A80007F0FBFFF
(1522004166.820648) can0 342#0007073D0E003888
(1522004166.820908) can0 344#A5A1B1A846340000
(1522004166.827328) can0 339#153F005CC610C1FD
(1522004166.828027) can0 264#0003848C00000183
(1522004166.828801) can0 010#0179006200728103
(1522004166.832316) can0 050#8000880000000000
(1522004166.832560) can0 111#B000080000006000
(1522004166.832802) can0 113#00000200528F0000
(1522004166.833040) can0 115#4E00021C000001AB
(1522004166.833272) can0 117#F935803882DF82E7
(1522004166.833520) can0 118#228A000060000000
(1522004166.833756) can0 119#4305000000000000
(1522004166.834006) can0 121#0000000040000000
(1522004166.834241) can0 122#7D7D3CD5F40000D5
(1522004166.834489) can0 123#0000300000000000
(1522004166.834733) can0 140#000000008000108A
(1522004166.834969) can0 229#003B801300001739
(1522004166.835207) can0 25C#F8600000028A1739
(1522004166.835446) can0 14A#6BF2C8040005FFFF
(1522004166.835684) can0 170#80BF80BC80C180C1
(1522004166.835926) can0 211#00A0000520000407
(1522004166.836164) can0 253#020D02127DFA00E5
(1522004166.836393) can0 254#918F4D64C39E00E6
(1522004166.836637) can0 299#0600000000000000
(1522004166.836887) can0 301#B600000000000000
(1522004166.838160) can0 091#00007F167F150001
(1522004166.838801) can0 010#0267006200728105
(1522004166.842311) can0 4EC#8F22B90000000000
(1522004166.845426) can0 262#08020802008D4DDB
(1522004166.845668) can0 263#00000FFF00000FFE
(1522004166.845909) can0 346#FC032B80FD000000
(1522004166.846156) can0 417#0002820000000000
(1522004166.847317) can0 050#8000880000000000
(1522004166.847560) can0 111#B000080000006000
(1522004166.847816) can0 113#0000020052900000
(1522004166.848041) can0 115#4E000222000001C4
(1522004166.848275) can0 117#F935801F831B82E9
(1522004166.848521) can0 118#228C000060000000
(1522004166.848763) can0 119#4305000000000000
(1522004166.849001) can0 010#0357006200728105
(1522004166.849234) can0 122#7D7D3CD6F40000D7
(1522004166.849481) can0 123#0000300000000000
(1522004166.849721) can0 264#0003948C0C00FD83
(1522004166.850016) can0 342#0027073F0E003888
(1522004166.850273) can0 344#85A1B1A846344000
(1522004166.850544) can0 40A#C104017508700000
(1522004166.850824) can0 441#806A2A0000000000
(1522004166.851095) can0 494#B424120001850035
(1522004166.852331) can0 121#0000000040000000
(1522004166.852577) can0 140#00000000800010B1
(1522004166.852813) can0 229#003B801300001746
(1522004166.853053) can0 25C#F8600000028C1746
(1522004166.853290) can0 339#153F0064C610C1FD
(1522004166.853526) can0 444#01174B4100009D98
(1522004166.855383) can0 14A#6BF1D8040005FFFF
(1522004166.855618) can0 170#80BF80BF80C680C4
(1522004166.855868) can0 211#00A0000520000407
(1522004166.856093) can0 253#021102147DFB00EB
(1522004166.856319) can0 254#918F3764D39E00EC
(1522004166.856568) can0 65A#0000000800000000
(1522004166.858067) can0 091#00007F167F150001
(1522004166.858817) can0 010#0445006200728107
(1522004166.862314) can0 050#8000880000000000
(1522004166.862558) can0 111#B000080000006000
(1522004166.862802) can0 113#0000020052900000
(1522004166.863040) can0 115#4E000226000001DC
(1522004166.863272) can0 117#F935801A832782EA
(1522004166.863524) can0 118#228D000060000000
(1522004166.863761) can0 119#4305000000000000
(1522004166.863995) can0 122#7D7D3CD6F40000DD
(1522004166.864243) can0 123#0000300000000000
(1522004166.864489) can0 299#0600000000000000
(1522004166.864739) can0 301#B600000000000000
(1522004166.868023) can0 264#0003848C01000183
(1522004166.868802) can0 010#053200620072810A
(1522004166.872321) can0 121#0000000040000000
(1522004166.872564) can0 140#00000000800010CC
(1522004166.872801) can0 229#003B801300001762
(1522004166.873041) can0 25C#F8600000028E1762
(1522004166.875393) can0 14A#6BF0E8040005FFFF
(1522004166.875623) can0 170#80C680C480CB80CD
(1522004166.875868) can0 211#00A0000520000407
(1522004166.876102) can0 253#021002177DFB00EF
(1522004166.876332) can0 254#918F1C64E39E00F7
(1522004166.876565) can0 262#08020802008E4DDB
(1522004166.876812) can0 263#00000FFF00000FFE
(1522004166.877052) can0 346#FB042B80FD000000
(1522004166.877300) can0 417#0002820000000000
(1522004166.877569) can0 050#8000880000000000
(1522004166.877812) can0 111#B000080000006000
(1522004166.878057) can0 113#0000020052900000
(1522004166.878301) can0 091#00007F167F0F0001
(1522004166.878539) can0 115#4E000229000001F4
(1522004166.878773) can0 117#F935800B833182E9
(1522004166.879011) can0 010#062000A30072810C
(1522004166.879259) can0 118#228E000060000000
(1522004166.879501) can0 119#4305000000000000
(1522004166.879746) can0 122#7D7D3CD6F40000DF
(1522004166.879984) can0 123#0000300000000000
(1522004166.880218) can0 339#153F0064C610C1FD
(1522004166.880458) can0 342#0007077D0E003888
(1522004166.880715) can0 344#A5A1B1A846340000
(1522004166.880973) can0 350#002403DA42E1E39C
(1522004166.887992) can0 04A#00D8D8D8FED8D8D8
(1522004166.888231) can0 264#0003948C0E00FD83
(1522004166.888500) can0 494#B4A4120001850035
(1522004166.888826) can0 010#070E00A30072810E
(1522004166.892318) can0 050#8000880000000000
(1522004166.892561) can0 111#B000080000006000
(1522004166.892805) can0 113#0000020052900000
(1522004166.893043) can0 115#4E000229000001F4
(1522004166.893281) can0 117#F9357FF3833482E9
(1522004166.893525) can0 118#228D000060000000
(1522004166.893766) can0 119#4305000000000000
(1522004166.894016) can0 121#0000000040000000
(1522004166.894252) can0 122#7D7D3CD6F40000E6
(1522004166.894501) can0 123#0000300000000000
(1522004166.894744) can0 140#0000000080001086
(1522004166.894983) can0 229#003B80130000175D
(1522004166.895220) can0 25C#F8600000028D175D
(1522004166.895460) can0 14A#6BEFF8030005FFFF
(1522004166.895708) can0 170#80C980C980D580D7
(1522004166.895937) can0 211#00A0000520000407
(1522004166.896173) can0 253#0210021A7DFA00F4
(1522004166.896404) can0 254#918F0664F39E00FD
(1522004166.896649) can0 299#0600000000000000
(1522004166.896900) can0 301#B600000000000000
(1522004166.898140) can0 091#00007F137F0F0001
(1522004166.898800) can0 010#080E00A30062810E
(1522004166.902302) can0 339#153F0064C610C1FD
(1522004166.905408) can0 262#08020802018E4EDC
(1522004166.905654) can0 263#00000FFF00000FFE
(1522004166.905895) can0 346#FA052B80FD000000
(1522004166.906143) can0 417#0002820000000000
(1522004166.907318) can0 050#8000880000000000
(1522004166.907561) can0 111#B000080000006000
(1522004166.907805) can0 113#0000020052900000
(1522004166.908046) can0 115#4E00022B0000020B
(1522004166.908278) can0 117#F9357FDC833182E8
(1522004166.908526) can0 118#228E000060000000
(1522004166.908768) can0 119#4305000000000000
(1522004166.909006) can0 010#09EB006200728111
(1522004166.909237) can0 122#7D7D3CD6F40000EA
(1522004166.909484) can0 123#0000300000000000
(1522004166.909727) can0 264#0003848C00000183
(1522004166.909989) can0 342#0027073F0E003888
(1522004166.910244) can0 344#A5A1B1A846344000
(1522004166.910522) can0 441#806A2A0000000000
(1522004166.912329) can0 121#0000000040000000
(1522004166.912574) can0 140#0000000080001081
(1522004166.912814) can0 229#003B801300001768
(1522004166.913052) can0 25C#F8600000028E1768
(1522004166.915417) can0 14A#6BFE08020005FFFF
(1522004166.915643) can0 170#80CD80CB80DC80DC
(1522004166.915886) can0 211#00A0000520000407
(1522004166.916121) can0 253#021F021E7DFB0100
(1522004166.916354) can0 254#918FEA64039E0108
(1522004166.918017) can0 04B#D8D8D8D8D8D8C000
(1522004166.918257) can0 091#00007F137F150001
(1522004166.918497) can0 340#191A80007F0FBFFF
(1522004166.918729) can0 454#3730333238343133
(1522004166.918967) can0 010#0AD9006200728113
(1522004166.922315) can0 050#8000880000000000
(1522004166.922560) can0 111#B000080000006000
(1522004166.922804) can0 113#0000020052900000
(1522004166.923042) can0 115#4E00022D00000222
(1522004166.923272) can0 117#F9357FD6833682E8
(1522004166.923516) can0 118#228F000060000000
(1522004166.923756) can0 119#4305000000000000
(1522004166.923989) can0 122#7D7D3CD6F40000F1
(1522004166.924237) can0 123#0000300000000000
(1522004166.924485) can0 299#0600000000000000
(1522004166.924734) can0 301#B600000000000000
(1522004166.924970) can0 444#01174B4100009D98
(1522004166.927303) can0 339#153F0064C610C1FD
(1522004166.928027) can0 264#0003948C0C008183
(1522004166.928302) can0 494#B424120001850035
(1522004166.928815) can0 010#0BC700A300728115
(1522004166.932322) can0 121#0000000040000000
(1522004166.932571) can0 140#000000008000107F
(1522004166.932811) can0 229#003B801300001780
(1522004166.933052) can0 25C#F860000002911780
(1522004166.935382) can0 14A#6BFD18030005FFFF
(1522004166.935608) can0 170#80D780D780E680E4
(1522004166.935862) can0 211#00A0000520000407
(1522004166.936082) can0 253#021E02227DFC0108
(1522004166.936313) can0 254#918FCF64139E0113
(1522004166.936549) can0 262#08020802018F4EDC
(1522004166.936797) can0 263#00000FFF00000FFE
(1522004166.937035) can0 346#F9062B80FD000000
(1522004166.937283) can0 417#0002820000000000
(1522004166.937532) can0 050#8000880000000000
(1522004166.937775) can0 111#B000080000006000
(1522004166.938018) can0 113#00000200528F0000
(1522004166.938257) can0 091#00007F217F130001
(1522004166.938494) can0 115#4E00022D00000235
(1522004166.938728) can0 117#F9357FBE834182E6
(1522004166.938968) can0 010#0CA400A300838117
(1522004166.939212) can0 118#2291000060000000
(1522004166.939455) can0 119#4305000000000000
(1522004166.939687) can0 122#7D7D3CD6F40000F5
(1522004166.939937) can0 123#0000300000000000
(1522004166.940171) can0 342#0027073F0E003888
(1522004166.940440) can0 344#A5A1B1A846344000
(1522004166.942318) can0 4EC#8F22B90000000000
(1522004166.948031) can0 264#0003848C00007D83
(1522004166.948297) can0 350#000003DA42E1639C
(1522004166.948810) can0 010#0D9100A30083811A
(1522004166.952317) can0 050#8000880000000000
(1522004166.952561) can0 111#B000080000006000
(1522004166.952803) can0 113#00000200528F0000
(1522004166.953041) can0 115#4E00022C00000247
(1522004166.953275) can0 117#F9357F9C834C82E5
(1522004166.953527) can0 118#2292000060000000
(1522004166.953764) can0 119#4305000000000000
(1522004166.954014) can0 121#0000000040000000
(1522004166.954250) can0 122#7D7D3CD6F40000FE
(1522004166.954498) can0 123#0000300000000000
(1522004166.954744) can0 140#0000000080001064
(1522004166.954980) can0 229#003B801300001784
(1522004166.955219) can0 25C#F860000002921784
(1522004166.955457) can0 14A#6BFC28040005FFFF
(1522004166.955689) can0 170#80DE80E180EB80F0
(1522004166.955931) can0 211#00A0000520000407
(1522004166.956163) can0 253#022202267DFC0112
(1522004166.956392) can0 254#918FB464239E011E
(1522004166.956638) can0 299#0600000000000000
(1522004166.956888) can0 301#B600000000000000
(1522004166.957120) can0 339#153F006BC610C1FD
(1522004166.957369) can0 65A#0000000800000000
(1522004166.958130) can0 091#00007F247F0F0001
(1522004166.958813) can0 010#0E7F00A30083811C
(1522004166.965384) can0 262#0802080202904FDD
(1522004166.965631) can0 263#00000FFF00000FFE
(1522004166.965870) can0 346#F8072B80FD000000
(1522004166.966117) can0 417#0002820000000000
(1522004166.967316) can0 050#8000880000000000
(1522004166.967560) can0 111#B000080000006000
(1522004166.967802) can0 113#00000200528F0000
(1522004166.968039) can0 115#4E00022D0000025C
(1522004166.968270) can0 117#F9357F80835482E4
(1522004166.968516) can0 118#2292000060000000
(1522004166.968758) can0 119#4305000000000000
(1522004166.968995) can0 010#0F6D00A30083811E
(1522004166.969228) can0 122#7D7D3CD6F4000103
(1522004166.969476) can0 123#0000300000000000
(1522004166.969716) can0 264#0003848C03000183
(1522004166.969984) can0 342#0007077D0E003888
(1522004166.970242) can0 344#85A1B1A846340000
(1522004166.970521) can0 40A#C105FFFFFFFF0000
(1522004166.970800) can0 441#806A2A0000000000
(1522004166.971070) can0 494#B4A4120001850035
(1522004166.972331) can0 121#0000000040000000
(1522004166.972576) can0 140#0000000080001059
(1522004166.972812) can0 229#003B801300001793
(1522004166.973050) can0 25C#F860000002921793
(1522004166.975409) can0 14A#6BFB38020005FFFF
(1522004166.975637) can0 170#80E980E680F780FC
(1522004166.975883) can0 211#00A0000520000407
(1522004166.976114) can0 253#0223022A7DFB011C
(1522004166.976340) can0 254#918F9864339E012A
(1522004166.977310) can0 339#153F006BC610C1FD
(1522004166.978028) can0 091#00007F2B7F130001
(1522004166.978802) can0 010#005B00A300838120
(1522004166.982556) can0 050#8000880000000000
(1522004166.982800) can0 111#B000080000006000
(1522004166.983042) can0 113#00000200528F0000
(1522004166.983279) can0 115#4E00022B0000026B
(1522004166.983557) can0 117#F9357F65835582E5
(1522004166.983763) can0 118#2295000060000000
(1522004166.983998) can0 119#4305000000000000
(1522004166.984234) can0 122#7D7D3CD7F400010D
(1522004166.984482) can0 123#0000300000000000
(1522004166.984728) can0 299#0600000000000000
(1522004166.984978) can0 301#B600000000000000
(1522004166.988023) can0 264#0003948C0C00FD83
(1522004166.988255) can0 04A#00D8D8D8FED8D8D8
(1522004166.988801) can0 010#013800A300938123
(1522004166.992318) can0 121#0000000040000000
(1522004166.992568) can0 140#000000008000107F
(1522004166.992804) can0 229#003B8013000017B6
(1522004166.993042) can0 25C#F8600000029317B6
(1522004166.993278) can0 444#01174F3F00009D98
(1522004166.995399) can0 14A#6BFA48020005FFFF
(1522004166.995613) can0 170#80F080ED81048104
(1522004166.995849) can0 211#00A0000520000407
(1522004166.996083) can0 253#0230022F7DFC012B
(1522004166.996308) can0 254#918F7765439E013B
(1522004166.996545) can0 262#0803080303904FDD
(1522004166.996797) can0 263#00000FFF00000FFE
(1522004166.997031) can0 346#F7082B80FD000000
(1522004166.997279) can0 417#0002820000000000
(1522004166.997529) can0 050#8000880000000000
(1522004166.997770) can0 111#B000080000006000
(1522004166.998015) can0 113#0000020052900000
(1522004166.998255) can0 091#00007F287F150001
(1522004166.998492) can0 115#4E00022B0000026B
(1522004166.998724) can0 117#F9357F56836482E7
(1522004166.998972) can0 010#022600A300938125
(1522004166.999205) can0 118#2293000060000000
(1522004166.999451) can0 119#4305000000000000
(1522004166.999679) can0 122#7D7D3CD8F4000112
(1522004166.999927) can0 123#0000300000000000
(1522004167.000161) can0 342#0027073F0E003888
(1522004167.000475) can0 344#A5A1B1A846344000
(1522004167.002339) can0 339#153F006BC610C1FD
(1522004167.008076) can0 264#0003848C00000183
(1522004167.008309) can0 494#B424120001850035
(1522004167.008820) can0 010#032600A300838125
(1522004167.012350) can0 050#8000880000000000
(1522004167.012570) can0 111#B000080000006000
(1522004167.012808) can0 113#0000020052900000
(1522004167.013043) can0 115#4E00022A0000027A
(1522004167.013275) can0 117#F9357F53835E82E9
(1522004167.013540) can0 118#2294000060000000
(1522004167.013758) can0 119#4305000000000000
(1522004167.014008) can0 121#0000000040000000
(1522004167.014242) can0 122#7D7D3CD9F400011E
(1522004167.014513) can0 123#0000300000000000
(1522004167.014796) can0 140#0000000080001062
(1522004167.014988) can0 229#003B8013000017B2
(1522004167.015222) can0 25C#F8600000029417B2
(1522004167.015457) can0 14A#6BF958040005FFFF
(1522004167.015730) can0 170#80FC80FA810B810B
(1522004167.015935) can0 211#00A0000520000407
(1522004167.016166) can0 253#022A02327DFC0134
(1522004167.016397) can0 254#918F6265539E0140
(1522004167.016643) can0 299#0600000000000000
(1522004167.016894) can0 301#B600000000000000
(1522004167.018048) can0 350#002403DA42E1639C
(1522004167.018278) can0 04B#D8D8D8D8D8D8C000
(1522004167.018516) can0 091#00007F217F150001
(1522004167.018757) can0 340#191A80007F0FBFFF
(1522004167.019000) can0 010#0414006200838127
(1522004167.019245) can0 400#1900020001000000
(1522004167.019522) can0 405#0167114379F00000
(1522004167.025356) can0 262#08030803039150DE
(1522004167.025603) can0 263#00000FFF00000FFE
(1522004167.025841) can0 346#F6092B80FD000000
(1522004167.026089) can0 417#0002820000000000
(1522004167.027316) can0 050#8000880000000000
(1522004167.027559) can0 111#B000080000006000
(1522004167.027804) can0 113#0000020052910000
(1522004167.028042) can0 115#4E00022A0000028C
(1522004167.028272) can0 117#F9357F4E836282EE
(1522004167.028517) can0 118#2295000060000000
(1522004167.028760) can0 119#4305000000000000
(1522004167.028999) can0 010#050100620083812A
(1522004167.029232) can0 122#7D7D3CDBF4000124
(1522004167.029486) can0 123#0000300000000000
(1522004167.029721) can0 264#0003948C0C008183
(1522004167.029954) can0 339#153F006BC610C1FD
(1522004167.030193) can0 342#0007073D0E003888
(1522004167.030451) can0 344#A5A1B1A846340000
(1522004167.030729) can0 441#806A2A0000000000
(1522004167.032324) can0 121#0000000040000000
(1522004167.032572) can0 140#000000008000106E
(1522004167.032809) can0 229#003B8013000017AD
(1522004167.033051) can0 25C#F8600000029517AD
(1522004167.035385) can0 14A#6BF868040005FFFF
(1522004167.035619) can0 170#8108810681178117
(1522004167.035861) can0 211#00A0000520000407
(1522004167.036098) can0 253#022E02347DFB0141
(1522004167.036327) can0 254#918F4165639E0151
(1522004167.037967) can0 091#00007F247F130001
(1522004167.038812) can0 010#06EF00A30083812C
(1522004167.042310) can0 050#8000880000000000
(1522004167.042554) can0 111#B000080000006000
(1522004167.042796) can0 113#0000020052920000
(1522004167.043034) can0 115#4E00022800000297
(1522004167.043278) can0 117#F9357F44836582F4
(1522004167.043540) can0 118#2294000060000000
(1522004167.043751) can0 119#4305000000000000
(1522004167.043986) can0 122#7D7D3CDDF400012F
(1522004167.044235) can0 123#0000300000000000
(1522004167.044480) can0 299#0600000000000000
(1522004167.044728) can0 301#B700000000000000
(1522004167.044967) can0 4EC#8F22B90000000000
(1522004167.048038) can0 264#0003848C00007D83
(1522004167.048308) can0 494#B424120001850035
(1522004167.048825) can0 010#07F000A30072812C
(1522004167.052321) can0 121#0000000040000000
(1522004167.052568) can0 140#000000008000106E
(1522004167.052808) can0 229#003B8013000017A1
(1522004167.053051) can0 25C#F8600000029417A1
(1522004167.053283) can0 339#153F0074C610C1FD
(1522004167.055412) can0 14A#6BF778030005FFFF
(1522004167.055637) can0 170#8117811581218123
(1522004167.055889) can0 211#00A0000520000407
(1522004167.056112) can0 253#023602377DFB0151
(1522004167.056341) can0 254#918F2665739E015C
(1522004167.056572) can0 262#08030803049251DF
(1522004167.056820) can0 263#00000FFF00000FFE
(1522004167.057056) can0 346#F50A2B80FD000000
(1522004167.057305) can0 417#0002820000000000
(1522004167.057553) can0 050#8000880000000000
(1522004167.057797) can0 111#B000080000006000
(1522004167.058039) can0 091#00007F327F110001
(1522004167.058283) can0 113#0000020052940000
(1522004167.058520) can0 115#4E000225000002A3
(1522004167.058754) can0 117#F9357F41835E82FD
(1522004167.058991) can0 010#08DE00620072812E
(1522004167.059234) can0 118#2294000060000000
(1522004167.059476) can0 119#4305000000000000
(1522004167.059710) can0 122#7D7D3CDFF4000135
(1522004167.059958) can0 123#0000300000000000
(1522004167.060196) can0 342#0027077F0E003888
(1522004167.060444) can0 65A#0000000800000000
(1522004167.060672) can0 344#A5A1B1A846344000
(1522004167.062314) can0 444#0117513D00009D98
(1522004167.068025) can0 264#0003948C0F008183
(1522004167.068806) can0 010#09CC006200728130
(1522004167.072426) can0 050#8000880000000000
(1522004167.072670) can0 111#B000080000006000
(1522004167.072914) can0 113#0000020052960000
(1522004167.073153) can0 115#4E000221000002B8
(1522004167.073387) can0 117#F9357F39835C8306
(1522004167.073639) can0 118#2295000060000000
(1522004167.073875) can0 119#4305000000000000
(1522004167.074126) can0 121#0000000040000000
(1522004167.074360) can0 122#7D7D3CE2F4000140
(1522004167.074607) can0 123#0000300000000000
(1522004167.074854) can0 140#0000000080001055
(1522004167.075090) can0 229#003B80130000178F
(1522004167.075333) can0 25C#F86000000295178F
(1522004167.075568) can0 14A#6BF688030005FFFF
(1522004167.075802) can0 170#81218123812D8132
(1522004167.076044) can0 211#00A0000520000407
(1522004167.076278) can0 253#023C023B7DFB0163
(1522004167.076507) can0 254#918F0565839E016D
(1522004167.076753) can0 299#0600000000000000
(1522004167.077000) can0 301#B700000000000000
(1522004167.077304) can0 339#153F0074C610C1FD
(1522004167.078085) can0 091#00007F287F150001
(1522004167.078814) can0 010#0AB900A300728133
(1522004167.085380) can0 262#08030803059251DF
(1522004167.085623) can0 263#00000FFF00000FFE
(1522004167.085860) can0 346#F40B2B80FD000000
(1522004167.086112) can0 417#0002820000000000
(1522004167.087316) can0 050#8000880000000000
(1522004167.087559) can0 111#B000080000006000
(1522004167.087804) can0 113#0000020052980000
(1522004167.088035) can0 04A#00D8D8D8FED8D8D8
(1522004167.088273) can0 115#4E00021E000002C0
(1522004167.088504) can0 117#F9357F35835D8311
(1522004167.088748) can0 118#2296000060000000
(1522004167.088982) can0 010#0BB900A300628133
(1522004167.089224) can0 119#4305000000000000
(1522004167.089458) can0 122#7D7D3CE4F4000148
(1522004167.089706) can0 123#0000300000000000
(1522004167.089949) can0 264#0003848C00007D83
(1522004167.090212) can0 342#0027073F0E003888
(1522004167.090471) can0 344#85A1B1A846344000
(1522004167.090729) can0 350#002403DA42E1E39C
(1522004167.091002) can0 40A#C0003E114379F03A
(1522004167.091281) can0 441#806A2A0000000000
(1522004167.091552) can0 494#B4A4120001850035
(1522004167.092429) can0 121#0000000040000000
(1522004167.092674) can0 140#0000000080001067
(1522004167.092914) can0 229#003B801300001782
(1522004167.093159) can0 25C#F860000002961782
(1522004167.095375) can0 14A#6BF598020005FFFF
(1522004167.095602) can0 170#812D812B813C813E
(1522004167.095850) can0 211#00A0000520000407
(1522004167.096077) can0 253#0238023D7DFC0171
(1522004167.096308) can0 254#918FE465939E017E
(1522004167.097963) can0 091#00007F2F7F160001
(1522004167.098799) can0 010#0C97006200728135
(1522004167.102352) can0 050#8000880000000000
(1522004167.102594) can0 111#B000080000006000
(1522004167.102840) can0 113#00000200529A0000
(1522004167.103076) can0 115#4E00021E000002CB
(1522004167.103306) can0 117#F9357F318362831A
(1522004167.103554) can0 118#229B000060000000
(1522004167.103794) can0 119#4305000000000000
(1522004167.104028) can0 122#7D7D3CE7F4000156
(1522004167.104277) can0 123#0000300000000000
(1522004167.104523) can0 299#0600000000000000
(1522004167.104770) can0 301#B700000000000000
(1522004167.105002) can0 339#153F0074C610C1FD
(1522004167.108026) can0 264#0003948C0C008183
(1522004167.108816) can0 010#0D85006200728137
(1522004167.112321) can0 121#0000000040000000
(1522004167.112566) can0 140#0000000080001066
(1522004167.112802) can0 229#003B801300001762
(1522004167.113041) can0 25C#F860000002A51762
(1522004167.115410) can0 14A#6BF4A8040005FFFF
(1522004167.115635) can0 170#813A8137814D814D
(1522004167.115878) can0 211#00A0000520000407
(1522004167.116114) can0 253#023902407DFC0180
(1522004167.116343) can0 254#918FBD65A39E0195
(1522004167.116576) can0 262#08030803069352E0
(1522004167.116824) can0 263#00000FFF00000FFE
(1522004167.117058) can0 346#F30C2B80FD000000
(1522004167.117307) can0 417#0002820000000000
(1522004167.117554) can0 050#8000880000000000
(1522004167.117799) can0 111#B000080000006000
(1522004167.118029) can0 04B#D8D8D8D8D8D8C000
(1522004167.118273) can0 091#00007F2F7F190001
(1522004167.118515) can0 113#0000020052A00000
(1522004167.118755) can0 115#4E00021B000002D2
(1522004167.118991) can0 010#0E85006200628137
(1522004167.119224) can0 117#F9357F32837A8338
(1522004167.119470) can0 118#22A5000060000000
(1522004167.119723) can0 119#4305000000000000
(1522004167.119946) can0 122#7D7D3CE9F400015C
(1522004167.120194) can0 123#0000300000000000
(1522004167.120435) can0 340#191A80007F0FBFFF
(1522004167.120674) can0 342#0007073D0E003888
(1522004167.120930) can0 344#A5A1B1A846340000
(1522004167.127298) can0 339#153F0074C610C1FD
(1522004167.128030) can0 264#0003848C00000183
(1522004167.128299) can0 494#B424120001850035
(1522004167.128814) can0 010#0F73006200628139
(1522004167.132316) can0 050#8000880000000000
(1522004167.132560) can0 111#B000080000006000
(1522004167.132802) can0 113#0000020052A40000
(1522004167.133041) can0 115#4E000219000002D9
(1522004167.133270) can0 117#F9357F3283B4834B
(1522004167.133521) can0 118#22A9000060000000
(1522004167.133757) can0 119#4305000000000000
(1522004167.134008) can0 121#0000000040000000
(1522004167.134242) can0 122#7D7D3CECF400016E
(1522004167.134489) can0 123#0000300000000000
(1522004167.134736) can0 140#000000008000105A
(1522004167.134971) can0 229#003B801300001756
(1522004167.135213) can0 25C#F860000002A91756
(1522004167.135448) can0 14A#6BF3B8050005FFFF
(1522004167.135682) can0 170#8148814B8157815C
(1522004167.135922) can0 211#00A0000520000407
(1522004167.136155) can0 253#023C02437DFC0190
(1522004167.136385) can0 254#918FA265B39E01A0
(1522004167.136631) can0 299#0600000000000000
(1522004167.136877) can0 301#B700000000000000
(1522004167.137112) can0 444#0117513D00009D98
(1522004167.138063) can0 091#00007F2B7F190001
(1522004167.138804) can0 010#005000620072813C
(1522004167.142308) can0 4EC#8F22B90000000000
(1522004167.145363) can0 262#08040804069453E1
(1522004167.145611) can0 263#00000FFF00000FFE
(1522004167.145846) can0 346#F20D2B80FD000000
(1522004167.146094) can0 417#0002820000000000
(1522004167.147357) can0 050#8000880000000000
(1522004167.147601) can0 111#B000080000006000
(1522004167.147843) can0 113#0000020052A40000
(1522004167.148081) can0 115#4E000219000002E2
(1522004167.148315) can0 117#F9357F3283C2834A
(1522004167.148559) can0 118#22A9000060000000
(1522004167.148802) can0 119#4305000000000000
(1522004167.149041) can0 010#015000620062813C
(1522004167.149273) can0 122#7D7D3CEEF4000176
(1522004167.149522) can0 123#0000300000000000
(1522004167.149764) can0 264#0003848C02007D83
(1522004167.150033) can0 342#0027073F0E003888
(1522004167.150286) can0 344#A5A1B1A846344000
(1522004167.150564) can0 441#806A2A0000000000
(1522004167.152333) can0 121#0000000040000000
(1522004167.152582) can0 140#0000000080001043
(1522004167.152815) can0 229#003B801300001733
(1522004167.153054) can0 25C#F860000002A91733
(1522004167.153288) can0 339#153F007FC610C1FD
(1522004167.155371) can0 14A#6BF2C8060005FFFF
(1522004167.155599) can0 170#815C815A81638168
(1522004167.155841) can0 211#00A0000520000407
(1522004167.156073) can0 253#024302457DFC01A3
(1522004167.156303) can0 254#918F8165C39E01B1
(1522004167.156549) can0 65A#00000007FD000000
(1522004167.157963) can0 091#00007F327F1B0001
(1522004167.158193) can0 350#002403DA42E1639C
(1522004167.158807) can0 010#023E00620062813E
(1522004167.162342) can0 050#8000880000000000
(1522004167.162586) can0 111#B000080000006000
(1522004167.162828) can0 113#0000020052A30000
(1522004167.163064) can0 115#4E000217000002E7
(1522004167.163299) can0 117#F9357F3283C08349
(1522004167.163545) can0 118#22A9000060000000
(1522004167.163784) can0 119#4305000000000000
(1522004167.164016) can0 122#7D7D3CF0F4000185
(1522004167.164264) can0 123#0000300000000000
(1522004167.164510) can0 299#0600000000000000
(1522004167.164757) can0 301#B700000000000000
(1522004167.168031) can0 264#0003948C0D008183
(1522004167.168301) can0 494#B4A4120001850035
(1522004167.168833) can0 010#033F00620051813E
(1522004167.172325) can0 121#0000000040000000
(1522004167.172565) can0 140#000000008000105B
(1522004167.172801) can0 229#003B80130000171A
(1522004167.173043) can0 25C#F860000002A7171A
(1522004167.175376) can0 14A#6BF1D8050005FFFF
(1522004167.175603) can0 170#8168816681758177
(1522004167.175857) can0 211#00A0000520000407
(1522004167.176078) can0 253#024802467DFC01B8
(1522004167.176306) can0 254#918F6065D39E01C2
(1522004167.176538) can0 262#08040804079554E2
(1522004167.176785) can0 263#00000FFF00000FFE
(1522004167.177024) can0 346#F10E2B80FD000000
(1522004167.177272) can0 417#0002820000000000
(1522004167.177520) can0 050#8000880000000000
(1522004167.177765) can0 111#B000080000006000
(1522004167.178004) can0 091#00007F367F1D0001
(1522004167.178249) can0 113#0000020052A10000
(1522004167.178486) can0 115#4E000214000002EB
(1522004167.178719) can0 117#F9357F3383BD833E
(1522004167.178959) can0 010#042F00620051813E
(1522004167.179204) can0 118#22A7000060000000
(1522004167.179446) can0 119#4305000000000000
(1522004167.179678) can0 122#7D7D3CF0F400018C
(1522004167.179926) can0 123#0000300000000000
(1522004167.180160) can0 339#153F007FC610C1FD
(1522004167.180401) can0 342#0007077D0E003888
(1522004167.180658) can0 344#A5A1B1A846340000
(1522004167.187885) can0 04A#00D8D8D8FED8D8D8
(1522004167.188126) can0 264#0003848C00007D83
(1522004167.188802) can0 010#051D003100518140
(1522004167.192315) can0 050#8000880000000000
(1522004167.192558) can0 111#B000080000006000
(1522004167.192805) can0 113#0000020052A20000
(1522004167.193039) can0 115#4E000214000002F3
(1522004167.193273) can0 117#F9357F3483AF8340
(1522004167.193524) can0 118#22A7000060000000
(1522004167.193759) can0 119#4305000000000000
(1522004167.194010) can0 121#0000000040000000
(1522004167.194244) can0 122#7D7D3CF1F400019D
(1522004167.194492) can0 123#0000300000000000
(1522004167.194737) can0 140#0000000080001066
(1522004167.194976) can0 229#003B80130000170C
(1522004167.195215) can0 25C#F860000002A7170C
(1522004167.195452) can0 14A#6BF0E8060005FFFF
(1522004167.195688) can0 170#8175817581818183
(1522004167.195930) can0 211#00A0000520000407
(1522004167.196164) can0 253#024802487DFC01CB
(1522004167.196393) can0 254#918F4065E39E01D2
(1522004167.196639) can0 299#0600000000000000
(1522004167.196885) can0 301#B700000000000000
(1522004167.198038) can0 091#00007F327F1B0001
(1522004167.198818) can0 010#061D003100418140
(1522004167.202308) can0 339#153F007FC610C1FD
(1522004167.202545) can0 444#0117553800009D98
(1522004167.205382) can0 262#08040804089655E3
(1522004167.205627) can0 263#00000FFF00000FFE
(1522004167.205867) can0 346#F00F2B80FD000000
(1522004167.206115) can0 417#0002820000000000
(1522004167.207315) can0 050#8000880000000000
(1522004167.207559) can0 111#B000080000006000
(1522004167.207800) can0 113#0000020052A40000
(1522004167.208039) can0 115#4E000212000002F5
(1522004167.208282) can0 117#F9357F3583AE8349
(1522004167.208513) can0 118#22A9000060000000
(1522004167.208756) can0 119#4305000000000000
(1522004167.208996) can0 010#07FA006200518143
(1522004167.209228) can0 122#7D7D3CF2F40001A5
(1522004167.209476) can0 123#0000300000000000
(1522004167.209719) can0 264#0003948C0C008183
(1522004167.209993) can0 342#0027073F0E003888
(1522004167.210248) can0 344#85A1B1A846344000
(1522004167.210521) can0 40A#FF00110210000000
(1522004167.210797) can0 441#806A2A0000000000
(1522004167.211067) can0 494#B424120001850035
(1522004167.212330) can0 121#0000000040000000
(1522004167.212575) can0 140#0000000080001071
(1522004167.212812) can0 229#003B8013000016F1
(1522004167.213054) can0 25C#F860000002A916F1
(1522004167.215370) can0 14A#6BEFF8060005FFFF
(1522004167.215593) can0 170#8186818381928194
(1522004167.215834) can0 211#00A0000520000407
(1522004167.216067) can0 253#0248024A7DFC01DD
(1522004167.216297) can0 254#918F1965F39E01E9
(1522004167.217914) can0 04B#D8D8D8D8D8D8C000
(1522004167.218155) can0 091#00007F2F7F1B0001
(1522004167.218395) can0 340#191A80007F0FBFFF
(1522004167.218835) can0 010#08FA006200418143
(1522004167.222364) can0 050#8000880000000000
(1522004167.222597) can0 111#B000080000006000
(1522004167.222840) can0 113#0000020052A50000
(1522004167.223080) can0 115#4E00021100000302
(1522004167.223312) can0 117#F9357F3683B58351
(1522004167.223562) can0 118#22AB000060000000
(1522004167.223798) can0 119#4305000000000000
(1522004167.224033) can0 122#7D7D3CF2F40001B7
(1522004167.224280) can0 123#0000300000000000
(1522004167.224527) can0 299#0600000000000000
(1522004167.224777) can0 301#B800000000000000
(1522004167.227368) can0 339#153F007FC610C1FD
(1522004167.228027) can0 264#0003848C02000183
(1522004167.228288) can0 350#002403DA4333639C
(1522004167.228806) can0 010#09E8006200418145
(1522004167.232326) can0 121#0000000040000000
(1522004167.232576) can0 140#000000008000105F
(1522004167.232813) can0 229#003B8013000016B4
(1522004167.233053) can0 25C#F860000002AC16B4
(1522004167.235383) can0 14A#6BFE08050005FFFF
(1522004167.235609) can0 170#8194819481A181A3
(1522004167.235851) can0 211#00A0000520000407
(1522004167.236090) can0 253#0249024B7DFC01F0
(1522004167.236324) can0 254#918FF865039E01FA
(1522004167.236556) can0 262#08040804099756E4
(1522004167.236804) can0 263#00000FFF00000FFE
(1522004167.237044) can0 346#FF002B80FD000000
(1522004167.237292) can0 417#0002820000000000
(1522004167.237540) can0 050#8000880000000000
(1522004167.237784) can0 111#B000080000006000
(1522004167.238026) can0 091#00007F287F1F0001
(1522004167.238269) can0 113#0000020052A60000
(1522004167.238513) can0 115#4E00020F00000304
(1522004167.238743) can0 117#F9357F3783B78356
(1522004167.238981) can0 010#0AC6006200518147
(1522004167.239228) can0 118#22AC000060000000
(1522004167.239468) can0 119#4305000000000000
(1522004167.239703) can0 122#7D7D3CF3F40001BF
(1522004167.239952) can0 123#0000300000000000
(1522004167.240188) can0 342#0027073F0E003888
(1522004167.240490) can0 344#A5A1B1A846344000
(1522004167.242319) can0 4EC#8F22B90000000000
(1522004167.248049) can0 264#0003948C0C00FD83
(1522004167.248305) can0 494#B424120001850035
(1522004167.248824) can0 010#0BB400A300518149
(1522004167.252316) can0 050#8000880000000000
(1522004167.252559) can0 111#B000080000006000
(1522004167.252802) can0 113#0000020052A60000
(1522004167.253042) can0 115#4E00020E00000308
(1522004167.253272) can0 117#F9357F3783B88354
(1522004167.253523) can0 118#22AB000060000000
(1522004167.253759) can0 119#4305000000000000
(1522004167.254009) can0 121#0000000040000000
(1522004167.254243) can0 122#7D7D3CF4F40001D1
(1522004167.254491) can0 123#0000300000000000
(1522004167.254738) can0 140#0000000080001043
(1522004167.254977) can0 229#003B80130000169D
(1522004167.255216) can0 25C#F860000002AB169D
(1522004167.255452) can0 14A#6BFD18060005FFFF
(1522004167.255686) can0 170#81A881A381AF81B2
(1522004167.255928) can0 211#00A0000520000407
(1522004167.256163) can0 253#024A024D7DFC0203
(1522004167.256395) can0 254#918FD665139E020B
(1522004167.256641) can0 299#0600000000000000
(1522004167.256893) can0 301#B800000000000000
(1522004167.257124) can0 339#153F0088C610C1FD
(1522004167.257369) can0 65A#00000007FA000000
(1522004167.258027) can0 091#00007F247F210001
(1522004167.258806) can0 010#0C7E00D40072814E
(1522004167.265400) can0 262#080508050A9857E5
(1522004167.265647) can0 263#00000FFF00000FFE
(1522004167.265885) can0 346#FE012B80FD000000
(1522004167.266135) can0 417#0002820000000000
(1522004167.267340) can0 050#8000880000000000
(1522004167.267585) can0 111#B000080000006000
(1522004167.267827) can0 113#0000020052A60000
(1522004167.268065) can0 115#4E00020E0000030D
(1522004167.268295) can0 117#F9357F3883AE8353
(1522004167.268540) can0 118#22AB000060000000
