(1522028021.322357) can0 350#002403DA42BFE39C
(1522028021.322599) can0 400#1C01010100020002
(1522028021.322878) can0 405#2100000000000000
(1522028021.327065) can0 050#8000900000000000
(1522028021.327308) can0 111#B000100000006000
(1522028021.327548) can0 113#00000500520D0000
(1522028021.327784) can0 010#09E580628010807A
(1522028021.328026) can0 115#4E00020000000172
(1522028021.328256) can0 117#F935802C802B802C
(1522028021.328501) can0 118#220D000060000000
(1522028021.328742) can0 091#00007E8F7F010001
(1522028021.328984) can0 119#4305000000000000
(1522028021.329238) can0 121#0000000040000000
(1522028021.329477) can0 122#7D7D3C00F4000356
(1522028021.329724) can0 123#0000300000000000
(1522028021.329972) can0 140#0000000080000921
(1522028021.330210) can0 14A#6BF867FD0005FFFF
(1522028021.330442) can0 170#82BB82BB82B882B6
(1522028021.330683) can0 211#00A0000520000407
(1522028021.330919) can0 229#003B8023000009E6
(1522028021.331159) can0 253#020002027DFE0360
(1522028021.331388) can0 254#918F393D63A70357
(1522028021.331627) can0 25C#F8600000020D09E6
(1522028021.331881) can0 299#0600000000000000
(1522028021.332128) can0 301#8900000000000000
(1522028021.332368) can0 264#0003948C0C008173
(1522028021.337737) can0 010#0A6500628000807A
(1522028021.339367) can0 262#07FD07FDAD46F492
(1522028021.339659) can0 263#00000FFF00000FFE
(1522028021.339854) can0 346#F00F2B80FD000000
(1522028021.340102) can0 417#0002820000000000
(1522028021.342068) can0 050#8000900000000000
(1522028021.342310) can0 111#B000100000006000
(1522028021.342550) can0 113#00000500520D0000
(1522028021.342790) can0 115#4E00020000000173
(1522028021.343021) can0 117#F935802C802C802C
(1522028021.343265) can0 118#220D000060000000
(1522028021.343507) can0 119#4305000000000000
(1522028021.343745) can0 122#7D7D3C00F4000356
(1522028021.343993) can0 123#0000300000000000
(1522028021.344229) can0 339#153F00C5C64DC1FD
(1522028021.344464) can0 342#0007073D0E0039A6
(1522028021.344722) can0 344#A5A1B1A845AE0000
(1522028021.347179) can0 121#0000000040000000
(1522028021.347336) can0 140#0000000080000924
(1522028021.347561) can0 229#003B8023000009E2
(1522028021.347815) can0 010#0B57000080008078
(1522028021.348049) can0 25C#F8600000020D09E2
(1522028021.348808) can0 04B#D8D8D8D8D8D8C000
(1522028021.349014) can0 091#00007E967EFD0001
(1522028021.349251) can0 340#191A80007F0FBFFF
(1522028021.349490) can0 14A#6BF777FA0005FFFF
(1522028021.349725) can0 170#82B882B882B882B6
(1522028021.349963) can0 211#00A0000520000407
(1522028021.350212) can0 253#020002017DFD0360
(1522028021.350436) can0 254#918F293D73A70357
(1522028021.352472) can0 264#0003848C00000173
(1522028021.352663) can0 494#B42412000185055B
(1522028021.357071) can0 050#8000900000000000
(1522028021.357308) can0 111#B000100000006000
(1522028021.357548) can0 113#00000500520D0000
(1522028021.357788) can0 010#0C39000080108076
(1522028021.358026) can0 115#4E00020100000174
(1522028021.358256) can0 117#F935802C802B802C
(1522028021.358500) can0 118#220D000060000000
(1522028021.358743) can0 119#4305000000000000
(1522028021.358981) can0 122#7D7D3C00F4000356
(1522028021.359229) can0 123#0000300000000000
(1522028021.359475) can0 299#0600000000000000
(1522028021.359724) can0 301#8900000000000000
(1522028021.359967) can0 4EC#8B22980000000000
(1522028021.367163) can0 121#0000000040000000
(1522028021.367319) can0 140#0000000080000926
(1522028021.367550) can0 229#003B8023000009DF
(1522028021.367789) can0 010#0D29000080108076
(1522028021.368037) can0 25C#F8600000020E09DF
(1522028021.368264) can0 339#153F00C8C64DC1FD
(1522028021.368708) can0 091#00007EA17EFB0001
(1522028021.369342) can0 14A#6BF687F90005FFFF
(1522028021.369582) can0 170#82B882BB82B882B8
(1522028021.369820) can0 211#00A0000520000407
(1522028021.370079) can0 253#020102017DFC0361
(1522028021.370283) can0 254#918F193D83A70357
(1522028021.370516) can0 262#07FD07FDAF47F593
(1522028021.370764) can0 263#00000FFF00000FFE
(1522028021.371004) can0 346#FF002B80FD000000
(1522028021.371252) can0 417#0002820000000000
(1522028021.372079) can0 050#8000900000000000
(1522028021.372321) can0 111#B000100000006000
(1522028021.372560) can0 113#00000500520D0000
(1522028021.372797) can0 115#4E00020100000174
(1522028021.373026) can0 117#F935802C802B802C
(1522028021.373272) can0 118#220E000060000000
(1522028021.373514) can0 119#4305000000000000
(1522028021.373753) can0 122#7D7D3C00F4000356
(1522028021.374003) can0 123#0000300000000000
(1522028021.374238) can0 264#0003948C0F00FD73
(1522028021.374499) can0 342#0027077F0E0039A6
(1522028021.374757) can0 344#85A1B1A845AE4000
(1522028021.375034) can0 441#C06A2A0000000000
(1522028021.377078) can0 444#014A7C7A00009398
(1522028021.377749) can0 010#0E0B006280208074
(1522028021.387097) can0 050#8000900000000000
(1522028021.387308) can0 111#B000100000006000
(1522028021.387547) can0 113#00000500520D0000
(1522028021.387785) can0 010#0FED006280318071
(1522028021.388025) can0 115#4E00020000000173
(1522028021.388257) can0 117#F935802B802C802B
(1522028021.388515) can0 118#220D000060000000
(1522028021.388745) can0 091#00007E9D7EFD0001
(1522028021.388987) can0 119#4305000000000000
(1522028021.389237) can0 121#0000000040000000
(1522028021.389476) can0 122#7D7D3C00F4000356
(1522028021.389733) can0 123#0000300000000000
(1522028021.389972) can0 140#0000000080000927
(1522028021.390210) can0 14A#6BF597F90005FFFF
(1522028021.390442) can0 170#82B882BB82B882B8
(1522028021.390684) can0 211#00A0000520000407
(1522028021.390921) can0 229#003B8023000009E1
(1522028021.391159) can0 253#020002037DFB0361
(1522028021.391391) can0 254#918F043E93A7035C
(1522028021.391631) can0 25C#F8600000020D09E1
(1522028021.391877) can0 299#0600000000000000
(1522028021.392123) can0 301#8A00000000000000
(1522028021.392364) can0 264#0003848C00000173
(1522028021.392596) can0 339#153F00C8C64DC1FD
(1522028021.392826) can0 350#002403DA42B1639C
(1522028021.393074) can0 65A#0000000800000000
(1522028021.393310) can0 494#B4A412000185055B
(1522028021.397708) can0 010#00CF00A38041806F
(1522028021.399354) can0 262#07FD07FDB049F795
(1522028021.399626) can0 263#00000FFF00000FFE
(1522028021.399840) can0 346#FE012B80FD000000
(1522028021.400088) can0 417#0002820000000000
(1522028021.402064) can0 050#8000900000000000
(1522028021.402307) can0 111#B000100000006000
(1522028021.402547) can0 113#00000500520D0000
(1522028021.402787) can0 115#4E00020000000173
(1522028021.403017) can0 117#F935802B802B802B
(1522028021.403261) can0 118#220D000060000000
(1522028021.403503) can0 119#4305000000000000
(1522028021.403743) can0 122#7D7D3C00F4000357
(1522028021.403991) can0 123#0000300000000000
(1522028021.404226) can0 342#0007073D0E0039A6
(1522028021.404482) can0 344#A5A1B1A845AE0000
(1522028021.407068) can0 121#0000000040000000
(1522028021.407315) can0 140#0000000080000927
(1522028021.407551) can0 229#003B8023000009E2
(1522028021.407791) can0 010#01BF00A38041806F
(1522028021.408031) can0 25C#F8600000020D09E2
(1522028021.408733) can0 091#00007EA87F030001
(1522028021.409365) can0 14A#6BF4A7F90005FFFF
(1522028021.409619) can0 170#82B682B882B882B8
(1522028021.409846) can0 211#00A0000520000407
(1522028021.410088) can0 253#01FF02017DFA0361
(1522028021.410318) can0 254#918FF43EA3A7035C
(1522028021.412298) can0 264#0003848C00007D73
(1522028021.417062) can0 050#8000900000000000
(1522028021.417304) can0 111#B000100000006000
(1522028021.417544) can0 113#00000500520D0000
(1522028021.417780) can0 010#02A100628051806D
(1522028021.418021) can0 115#4E00020000000173
(1522028021.418251) can0 117#F935802C802A802C
(1522028021.418495) can0 118#220D000060000000
(1522028021.418727) can0 04A#00D8D8D8FED8D8D8
(1522028021.418969) can0 119#4305000000000000
(1522028021.419207) can0 122#7D7D3C00F4000358
(1522028021.419455) can0 123#0000300000000000
(1522028021.419703) can0 299#0600000000000000
(1522028021.419948) can0 301#8A00000000000000
(1522028021.420180) can0 339#153F00C8C64DC1FD
(1522028021.427060) can0 121#0000000040000000
(1522028021.427307) can0 140#0000000080000921
(1522028021.427543) can0 229#003B8023000009EC
(1522028021.427777) can0 010#039100628051806D
(1522028021.428017) can0 25C#F8600000020D09EC
(1522028021.428679) can0 091#00007EB27F070001
(1522028021.429323) can0 14A#6BF3B7FB0005FFFF
(1522028021.429555) can0 170#82B682B882B482B6
(1522028021.429798) can0 211#00A0000520000407
(1522028021.430038) can0 253#01FE02017DFA0360
(1522028021.430270) can0 254#918FE93EB3A70357
(1522028021.430504) can0 262#07FD07FDB24AF896
(1522028021.430752) can0 263#00000FFF00000FFE
(1522028021.430992) can0 346#FD022B80FD000000
(1522028021.431240) can0 417#0002820000000000
(1522028021.432070) can0 050#8000900000000000
(1522028021.432313) can0 111#B000100000006000
(1522028021.432553) can0 113#00000500520D0000
(1522028021.432793) can0 115#4E00020000000173
(1522028021.433023) can0 117#F935802C802B802C
(1522028021.433267) can0 118#220D000060000000
(1522028021.433510) can0 119#4305000000000000
(1522028021.433748) can0 122#7D7D3C00F4000359
(1522028021.433996) can0 123#0000300000000000
(1522028021.434234) can0 264#0003948C0C008173
(1522028021.434496) can0 342#0027073F0E0039A6
(1522028021.434753) can0 344#A5A1B1A845AE4000
(1522028021.435025) can0 40A#C001FF3B0039A600
(1522028021.435301) can0 441#C06A2A0000000000
(1522028021.435571) can0 494#B42412000185055B
(1522028021.437741) can0 010#047300628062806A
(1522028021.442046) can0 339#153F00C8C64DC1FD
(1522028021.447058) can0 050#8000900000000000
(1522028021.447300) can0 111#B000100000006000
(1522028021.447540) can0 113#00000500520D0000
(1522028021.447778) can0 010#057400628051806A
(1522028021.448020) can0 115#4E00020000000175
(1522028021.448251) can0 117#F935802C802B802C
(1522028021.448495) can0 118#220D000060000000
(1522028021.448725) can0 04B#D8D8D8D8D8D8C000
(1522028021.448967) can0 091#00007EB97F090001
(1522028021.449209) can0 119#4305000000000000
(1522028021.449459) can0 121#0000000040000000
(1522028021.449700) can0 122#7D7D3C00F4000358
(1522028021.449945) can0 123#0000300000000000
(1522028021.450192) can0 140#0000000080000921
(1522028021.450430) can0 14A#6BF2C7FC0005FFFF
(1522028021.450662) can0 170#82B682B682B482B6
(1522028021.450904) can0 211#00A0000520000407
(1522028021.451140) can0 229#003B8023000009EB
(1522028021.451386) can0 253#01FE02007DFA0360
(1522028021.451616) can0 254#918FD93EC3A70357
(1522028021.451856) can0 25C#F8600000020D09EB
(1522028021.452103) can0 299#0600000000000000
(1522028021.452343) can0 264#0003848C02000173
(1522028021.452589) can0 301#8A00000000000000
(1522028021.452829) can0 340#191A80007F0FBFFF
(1522028021.453067) can0 444#014A7C7A00009398
(1522028021.457059) can0 4EC#8B22980000000000
(1522028021.457700) can0 010#066400628051806A
(1522028021.459330) can0 262#07FD07FDB44CFA98
(1522028021.459578) can0 263#00000FFF00000FFE
(1522028021.459819) can0 346#FC032B80FD000000
(1522028021.460067) can0 417#0002820000000000
(1522028021.462062) can0 050#8000900000000000
(1522028021.462303) can0 111#B000100000006000
(1522028021.462543) can0 113#00000500520D0000
(1522028021.462785) can0 115#4E00020000000175
(1522028021.463015) can0 117#F935802B802B802B
(1522028021.463259) can0 118#220D000060000000
(1522028021.463501) can0 119#4305000000000000
(1522028021.463739) can0 122#7D7D3C00F4000358
(1522028021.463988) can0 123#0000300000000000
(1522028021.464223) can0 342#0027077F0E0039A6
(1522028021.464480) can0 344#A5A1B1A845AE4000
(1522028021.464740) can0 350#002403DA42B1639C
(1522028021.467064) can0 121#0000000040000000
(1522028021.467309) can0 140#0000000080000923
(1522028021.467549) can0 229#003B8023000009F0
(1522028021.467785) can0 010#0756003180518068
(1522028021.468031) can0 25C#F8600000020D09F0
(1522028021.468267) can0 339#153F00CBC64DC1FD
(1522028021.468757) can0 091#00007EC47F090001
(1522028021.469353) can0 14A#6BF1D7FD0005FFFF
(1522028021.469604) can0 170#82B682B682B482B6
(1522028021.469828) can0 211#00A0000520000407
(1522028021.470068) can0 253#01FB02007DF9035D
(1522028021.470298) can0 254#918FC93ED3A70357
(1522028021.472289) can0 264#0003948C0D00FD73
(1522028021.472558) can0 494#B4A412000185055B
(1522028021.477177) can0 050#8000900000000000
(1522028021.477419) can0 111#B000100000006000
(1522028021.477659) can0 113#00000500520D0000
(1522028021.477897) can0 010#0856003180418068
(1522028021.478137) can0 115#4E00020000000174
(1522028021.478367) can0 117#F935802B802A802B
(1522028021.478611) can0 118#220D000060000000
(1522028021.478854) can0 119#4305000000000000
(1522028021.479094) can0 122#7D7D3C00F4000357
(1522028021.479342) can0 123#0000300000000000
(1522028021.479602) can0 299#0600000000000000
(1522028021.479837) can0 301#8B00000000000000
(1522028021.487056) can0 121#0000000040000000
(1522028021.487301) can0 140#0000000080000922
(1522028021.487537) can0 229#003B8023000009EC
(1522028021.487775) can0 010#0956003180318068
(1522028021.488015) can0 25C#F8600000020D09EC
(1522028021.488657) can0 091#00007ED57F0F0001
(1522028021.489339) can0 14A#6BF0E7FD0005FFFF
(1522028021.489571) can0 170#82B682B482B482B6
(1522028021.489814) can0 211#00A0000520000407
(1522028021.490054) can0 253#01FC01FF7DF8035C
(1522028021.490288) can0 254#918FB93EE3A70357
(1522028021.490522) can0 262#07FD07FDB54EFC9A
(1522028021.490770) can0 263#00000FFF00000FFE
(1522028021.491010) can0 346#FB042B80FD000000
(1522028021.491259) can0 417#0002820000000000
(1522028021.491507) can0 65A#0000000800000000
(1522028021.492071) can0 050#8000900000000000
(1522028021.492313) can0 111#B000100000006000
(1522028021.492553) can0 113#00000500520D0000
(1522028021.492794) can0 115#4E0001FF00000172
(1522028021.493024) can0 117#F935802C802A802C
(1522028021.493268) can0 118#220D000060000000
(1522028021.493510) can0 119#4305000000000000
(1522028021.493751) can0 122#7D7D3C00F4000357
(1522028021.493999) can0 123#0000300000000000
(1522028021.494239) can0 264#0003848C00000173
(1522028021.494475) can0 339#153F00CBC64DC1FD
(1522028021.494709) can0 342#0007073D0E0039A6
(1522028021.494967) can0 344#85A1B1A845AE0000
(1522028021.495245) can0 441#C06A2A0000000000
(1522028021.497740) can0 010#0A46003180318068
(1522028021.507054) can0 050#8000900000000000
(1522028021.507296) can0 111#B000100000006000
(1522028021.507536) can0 113#00000500520D0000
(1522028021.507776) can0 010#0B47003180208068
(1522028021.508016) can0 115#4E0001FF00000172
(1522028021.508247) can0 117#F935802C802A802C
(1522028021.508491) can0 118#220D000060000000
(1522028021.508730) can0 091#00007EEA7F0D0001
(1522028021.508972) can0 119#4305000000000000
(1522028021.509223) can0 121#0000000040000000
(1522028021.509463) can0 122#7D7D3C00F4000357
(1522028021.509711) can0 123#0000300000000000
(1522028021.509955) can0 140#0000000080000928
(1522028021.510195) can0 14A#6BEFF7FF0005FFFF
(1522028021.510427) can0 170#82B482B682B482B6
(1522028021.510670) can0 211#00A0000520000407
(1522028021.510908) can0 229#003B8023000009E8
(1522028021.511146) can0 253#01FA01FF7DF9035A
(1522028021.511378) can0 254#918FA93EF3A70357
(1522028021.511620) can0 25C#F8600000020D09E8
(1522028021.511866) can0 299#0600000000000000
(1522028021.512114) can0 301#8B00000000000000
(1522028021.512357) can0 264#0003948C0C00FD73
(1522028021.512629) can0 494#B42412000185055B
(1522028021.517052) can0 339#153F00CBC64DC1FD
(1522028021.517286) can0 444#014A7C7B00009398
(1522028021.517728) can0 010#0C37003180208068
(1522028021.518616) can0 04A#00D8D8D8FED8D8D8
(1522028021.519314) can0 262#07FD07FDB74FFD9B
(1522028021.519562) can0 263#00000FFF00000FFE
(1522028021.519803) can0 346#FA052B80FD000000
(1522028021.520050) can0 417#0002820000000000
(1522028021.522058) can0 050#8000900000000000
(1522028021.522301) can0 111#B000100000006000
(1522028021.522541) can0 113#00000500520D0000
(1522028021.522781) can0 115#4E00020000000174
(1522028021.523012) can0 117#F935802C802A802C
(1522028021.523255) can0 118#220D000060000000
(1522028021.523497) can0 119#4305000000000000
(1522028021.523738) can0 122#7D7D3C00F4000357
(1522028021.523986) can0 123#0000300000000000
(1522028021.524222) can0 342#0027073F0E0039A6
(1522028021.524478) can0 344#A5A1B1A845AE4000
(1522028021.527060) can0 121#0000000040000000
(1522028021.527305) can0 140#0000000080000923
(1522028021.527541) can0 229#003B8023000009E5
(1522028021.527779) can0 010#0D37003180108068
(1522028021.528023) can0 25C#F8600000020D09E5
(1522028021.528699) can0 091#00007EFA7F110001
(1522028021.529335) can0 14A#6BFE07FE0005FFFF
(1522028021.529569) can0 170#82B682B682B482B4
(1522028021.529812) can0 211#00A0000520000407
(1522028021.530052) can0 253#01FA02007DFA0359
(1522028021.530286) can0 254#918F993E03A70357
(1522028021.532301) can0 264#0003848C02000173
(1522028021.532561) can0 350#002403DA42B1E39C
(1522028021.537057) can0 050#8000900000000000
(1522028021.537299) can0 111#B000100000006000
(1522028021.537539) can0 113#00000500520D0000
(1522028021.537778) can0 010#0E27003180108068
(1522028021.538018) can0 115#4E00020000000174
(1522028021.538248) can0 117#F935802C802A802C
(1522028021.538492) can0 118#220D000060000000
(1522028021.538734) can0 119#4305000000000000
(1522028021.538975) can0 122#7D7D3C00F4000357
(1522028021.539223) can0 123#0000300000000000
(1522028021.539469) can0 299#0600000000000000
(1522028021.539718) can0 301#8C00000000000000
(1522028021.542041) can0 339#153F00CBC64DC1FD
(1522028021.547055) can0 121#0000000040000000
(1522028021.547299) can0 140#0000000080000926
(1522028021.547539) can0 229#003B8023000009F0
(1522028021.547780) can0 010#0F17003180108068
(1522028021.548026) can0 25C#F8600000020D09F0
(1522028021.548626) can0 04B#D8D8D8D8D8D8C000
(1522028021.548868) can0 091#00007F087F110001
(1522028021.549108) can0 340#191A80007F0FBFFF
(1522028021.549346) can0 14A#6BFD18000005FFFF
(1522028021.549580) can0 170#82B482B882B482B4
(1522028021.549823) can0 211#00A0000520000407
(1522028021.550061) can0 253#01FD02027DFA0359
(1522028021.550293) can0 254#918F893E13A70357
(1522028021.550529) can0 262#07FD07FDB851FF9D
(1522028021.550777) can0 263#00000FFF00000FFE
(1522028021.551015) can0 346#F9062B80FD000000
(1522028021.551264) can0 417#0002820000000000
(1522028021.552070) can0 050#8000900000000000
(1522028021.552312) can0 111#B000100000006000
(1522028021.552552) can0 113#00000500520D0000
(1522028021.552790) can0 115#4E0001FF00000173
(1522028021.553021) can0 117#F935802C802B802C
(1522028021.553265) can0 118#220D000060000000
(1522028021.553507) can0 119#4305000000000000
(1522028021.553747) can0 122#7D7D3C00F4000357
(1522028021.553995) can0 123#0000300000000000
(1522028021.554233) can0 264#0003948C0C008173
(1522028021.554493) can0 342#0007073D0E0039A6
(1522028021.554752) can0 344#A5A1B1A845AE0000
(1522028021.555016) can0 40A#C100314654595231
(1522028021.555294) can0 441#C06A2A0000000000
(1522028021.555566) can0 494#B42412000185055B
(1522028021.557064) can0 4EC#8B22980000000000
(1522028021.557744) can0 010#0017003180008068
(1522028021.567054) can0 050#8000900000000000
(1522028021.567295) can0 111#B000100000006000
(1522028021.567534) can0 113#00000500520D0000
(1522028021.567781) can0 010#0107003180008068
(1522028021.568019) can0 115#4E0001FF00000173
(1522028021.568249) can0 117#F935802D802B802D
(1522028021.568493) can0 118#220D000060000000
(1522028021.568733) can0 091#00007F137F110001
(1522028021.568975) can0 119#4305000000000000
(1522028021.569225) can0 121#0000000040000000
(1522028021.569466) can0 122#7D7D3C00F4000357
(1522028021.569717) can0 123#0000300000000000
(1522028021.569958) can0 140#0000000080000923
(1522028021.570199) can0 14A#6BFC28000005FFFF
(1522028021.570429) can0 170#82B882B682B482B4
(1522028021.570671) can0 211#00A0000520000407
(1522028021.570911) can0 229#003B8023000009F0
(1522028021.571151) can0 253#01FF02027DFA035A
(1522028021.571383) can0 254#918F793E23A70357
(1522028021.571629) can0 25C#F8600000020D09F0
(1522028021.571875) can0 299#0600000000000000
(1522028021.572122) can0 301#8C00000000000000
(1522028021.572360) can0 264#0003848C01007D73
(1522028021.572594) can0 339#153F00CEC64DC1FD
(1522028021.572846) can0 400#1D00010100000000
(1522028021.573112) can0 405#016711471DD00000
(1522028021.577728) can0 010#02F7000080008068
(1522028021.579312) can0 262#07FD07FDBA52009E
(1522028021.579561) can0 263#00000FFF00000FFE
(1522028021.579799) can0 346#F8072B80FD000000
(1522028021.580047) can0 417#0002820000000000
(1522028021.582057) can0 050#8000900000000000
(1522028021.582299) can0 111#B000100000006000
(1522028021.582541) can0 113#00000500520E0000
(1522028021.582779) can0 115#4E0001FF00000173
(1522028021.583012) can0 117#F935802D802A802D
(1522028021.583256) can0 118#220D000060000000
(1522028021.583498) can0 119#4305000000000000
(1522028021.583737) can0 122#7D7D3C00F4000356
(1522028021.583986) can0 123#0000300000000000
(1522028021.584221) can0 342#0027077F0E0039A6
(1522028021.584477) can0 344#A5A1B1A845AE4000
(1522028021.587059) can0 121#0000000040000000
(1522028021.587304) can0 140#0000000080000924
(1522028021.587544) can0 229#003B8023000009F0
(1522028021.587788) can0 010#03E7000080008068
(1522028021.588034) can0 25C#F8600000020D09F0
(1522028021.588272) can0 444#014A7C7A00009398
(1522028021.588670) can0 091#00007F1D7F130001
(1522028021.589316) can0 14A#6BFB38000005FFFF
(1522028021.589548) can0 170#82B882B882B482B6
(1522028021.589794) can0 211#00A0000520000407
(1522028021.590035) can0 253#01FF02007DFA035A
(1522028021.590265) can0 254#918F693E33A70357
(1522028021.590513) can0 65A#0000000800000000
(1522028021.592049) can0 339#153F00CEC64DC1FD
(1522028021.592291) can0 264#0003848C00000173
(1522028021.592561) can0 494#B4A412000185055B
(1522028021.597056) can0 050#8000900000000000
(1522028021.597297) can0 111#B000100000006000
(1522028021.597538) can0 113#00000500520D0000
(1522028021.597782) can0 010#04D7000080008068
(1522028021.598020) can0 115#4E0001FF00000173
(1522028021.598250) can0 117#F935802D802B802D
(1522028021.598495) can0 118#220D000060000000
(1522028021.598737) can0 119#4305000000000000
(1522028021.598975) can0 122#7D7D3C00F4000356
(1522028021.599223) can0 123#0000300000000000
(1522028021.599470) can0 299#0600000000000000
(1522028021.599718) can0 301#8C00000000000000
(1522028021.602302) can0 350#000003DA42E1639C
(1522028021.607052) can0 121#0000000040000000
(1522028021.607299) can0 140#000000008000091F
(1522028021.607536) can0 229#003B8023000009EA
(1522028021.607780) can0 010#05C7000080008068
(1522028021.608023) can0 25C#F8600000020D09EA
(1522028021.608612) can0 091#00007F327F130001
(1522028021.609353) can0 14A#6BFA48000005FFFF
(1522028021.609597) can0 170#82B882B682B882B6
(1522028021.609827) can0 211#00A0000520000407
(1522028021.610065) can0 253#020102007DFA035B
(1522028021.610293) can0 254#918F593E43A70357
(1522028021.610531) can0 262#07FD07FDBC5402A0
(1522028021.610780) can0 263#00000FFF00000FFE
(1522028021.611018) can0 346#F7082B80FD000000
(1522028021.611266) can0 417#0002820000000000
(1522028021.612064) can0 050#8000900000000000
(1522028021.612306) can0 111#B000100000006000
(1522028021.612547) can0 113#00000500520D0000
(1522028021.612789) can0 115#4E00020000000175
(1522028021.613019) can0 117#F935802D802B802D
(1522028021.613263) can0 118#220D000060000000
(1522028021.613505) can0 119#4305000000000000
(1522028021.613744) can0 122#7D7D3C00F4000356
(1522028021.613992) can0 123#0000300000000000
(1522028021.614228) can0 264#0003948C0E00FD73
(1522028021.614490) can0 342#0027073F0E0039A6
(1522028021.614748) can0 344#85A1B1A845AE4000
(1522028021.615028) can0 441#C06A2A0000000000
(1522028021.617047) can0 339#153F00CEC64DC1FD
(1522028021.617743) can0 010#06B7000080008068
(1522028021.618639) can0 04A#00D8D8D8FED8D8D8
(1522028021.627049) can0 050#8000900000000000
(1522028021.627290) can0 111#B000100000006000
(1522028021.627530) can0 113#00000500520D0000
(1522028021.627774) can0 010#07A7000080008068
(1522028021.628017) can0 115#4E00020000000175
(1522028021.628247) can0 117#F935802B802B802B
(1522028021.628491) can0 118#220D000060000000
(1522028021.628731) can0 091#00007F3D7F160001
(1522028021.628973) can0 119#4305000000000000
(1522028021.629223) can0 121#0000000040000000
(1522028021.629462) can0 122#7D7D3C00F4000356
(1522028021.629711) can0 123#0000300000000000
(1522028021.629954) can0 140#0000000080000923
(1522028021.630192) can0 14A#6BF958000005FFFF
(1522028021.630424) can0 170#82B882B882B882B6
(1522028021.630667) can0 211#00A0000520000407
(1522028021.630903) can0 229#003B8023000009E9
(1522028021.631145) can0 253#020002007DFA035B
(1522028021.631373) can0 254#918F493E53A70357
(1522028021.631613) can0 25C#F8600000020D09E9
(1522028021.631859) can0 299#0600000000000000
(1522028021.632106) can0 301#8D00000000000000
(1522028021.632346) can0 264#0003848C00000173
(1522028021.632616) can0 494#B42412000185055B
(1522028021.637714) can0 010#0897000080008068
(1522028021.639311) can0 262#07FD07FDBD5604A2
(1522028021.639560) can0 263#00000FFF00000FFE
(1522028021.639799) can0 346#F6092B80FD000000
(1522028021.640047) can0 417#0002820000000000
(1522028021.642055) can0 050#8000900000000000
(1522028021.642297) can0 111#B000100000006000
(1522028021.642537) can0 113#00000500520D0000
(1522028021.642779) can0 115#4E00020000000175
(1522028021.643010) can0 117#F935802B802B802B
(1522028021.643254) can0 118#220D000060000000
(1522028021.643496) can0 119#4305000000000000
(1522028021.643734) can0 122#7D7D3C00F4000356
(1522028021.643982) can0 123#0000300000000000
(1522028021.644217) can0 339#153F00CEC64DC1FD
(1522028021.644451) can0 342#0007073D0E0039A6
(1522028021.644709) can0 344#A5A1B1A845AD0000
(1522028021.647055) can0 121#0000000040000000
(1522028021.647300) can0 140#0000000080000925
(1522028021.647536) can0 229#003B8023000009E6
(1522028021.647778) can0 010#0987000080008068
(1522028021.648018) can0 25C#F8600000020D09E6
(1522028021.648662) can0 04B#D8D8D8D8D8D8C000
(1522028021.648908) can0 091#00007F4B7F070001
(1522028021.649148) can0 340#191A80007F0FBFFF
(1522028021.649386) can0 14A#6BF868000005FFFF
(1522028021.649621) can0 170#82B882B882B882B6
(1522028021.649860) can0 211#00A0000520000407
(1522028021.650100) can0 253#020102027DFB035C
(1522028021.650333) can0 254#918F393E63A70357
(1522028021.652293) can0 264#0003948C0C008173
(1522028021.657049) can0 050#8000900000000000
(1522028021.657290) can0 111#B000100000006000
(1522028021.657530) can0 113#00000500520D0000
(1522028021.657775) can0 010#0A77000080008068
(1522028021.658017) can0 115#4E00020000000175
(1522028021.658248) can0 117#F935802B802B802B
(1522028021.658492) can0 118#220D000060000000
(1522028021.658734) can0 119#4305000000000000
(1522028021.658972) can0 122#7D7D3C00F4000356
(1522028021.659220) can0 123#0000300000000000
(1522028021.659466) can0 299#0600000000000000
(1522028021.659716) can0 301#8D00000000000000
(1522028021.659949) can0 444#014A7D7B00009398
(1522028021.660193) can0 4EC#8B22980000000000
(1522028021.667089) can0 121#0000000040000000
(1522028021.667299) can0 140#0000000080000925
(1522028021.667536) can0 229#003B8023000009ED
(1522028021.667778) can0 010#0B67000080008068
(1522028021.668018) can0 25C#F8600000020D09ED
(1522028021.668252) can0 339#153F00D1C64DC1FD
(1522028021.668598) can0 091#00007F4E7EF90001
(1522028021.669316) can0 14A#6BF777FC0005FFFF
(1522028021.669549) can0 170#82B882B882B682B6
(1522028021.669791) can0 211#00A0000520000407
(1522028021.670029) can0 253#020002017DFA035C
(1522028021.670264) can0 254#918F293E73A70357
(1522028021.670502) can0 262#07FD07FDBF5705A3
(1522028021.670750) can0 263#00000FFF00000FFE
(1522028021.670986) can0 346#F50A2B80FD000000
(1522028021.671234) can0 417#0002820000000000
(1522028021.672060) can0 050#8000900000000000
(1522028021.672302) can0 111#B000100000006000
(1522028021.672543) can0 113#00000500520D0000
(1522028021.672785) can0 115#4E00020000000175
(1522028021.673015) can0 117#F935802C802B802C
(1522028021.673259) can0 118#220D000060000000
(1522028021.673502) can0 119#4305000000000000
(1522028021.673740) can0 122#7D7D3C00F4000356
(1522028021.673988) can0 123#0000300000000000
(1522028021.674226) can0 264#0003848C01007D73
(1522028021.674488) can0 342#0027077F0E0039A6
(1522028021.674747) can0 344#A5A1B1A845AD4000
(1522028021.675005) can0 350#002403DA42E1639C
(1522028021.675269) can0 40A#C1015A4D32484B41
(1522028021.675549) can0 441#C06A2A0000000000
(1522028021.675821) can0 494#B4A412000185055B
(1522028021.677741) can0 010#0C57000080008068
(1522028021.687048) can0 050#8000900000000000
(1522028021.687289) can0 111#B000100000006000
(1522028021.687530) can0 113#00000500520D0000
(1522028021.687772) can0 010#0D47000080008068
(1522028021.688012) can0 115#4E00020100000177
(1522028021.688242) can0 117#F935802B802B802B
(1522028021.688486) can0 118#220D000060000000
(1522028021.688728) can0 091#00007F557EF50001
(1522028021.688970) can0 119#4305000000000000
(1522028021.689221) can0 121#0000000040000000
(1522028021.689459) can0 122#7D7D3C00F4000356
(1522028021.689710) can0 123#0000300000000000
(1522028021.689951) can0 140#0000000080000925
(1522028021.690193) can0 14A#6BF687F80005FFFF
(1522028021.690426) can0 170#82B882B682B682B4
(1522028021.690668) can0 211#00A0000520000407
(1522028021.690906) can0 229#003B8023000009EE
(1522028021.691142) can0 253#020102027DFC035D
(1522028021.691372) can0 254#918F193E83A70357
(1522028021.691612) can0 25C#F8600000020D09EE
(1522028021.691859) can0 299#0600000000000000
(1522028021.692105) can0 301#8D00000000000000
(1522028021.692343) can0 264#0003948C0C008173
(1522028021.692577) can0 339#153F00D1C64DC1FD
(1522028021.692825) can0 65A#0000000800000000
(1522028021.697695) can0 010#0E37000080008068
(1522028021.699299) can0 262#07FD07FDC05907A5
(1522028021.699547) can0 263#00000FFF00000FFE
(1522028021.699786) can0 346#F40B2B80FD000000
(1522028021.700034) can0 417#0002820000000000
(1522028021.702050) can0 050#8000900000000000
(1522028021.702292) can0 111#B000100000006000
(1522028021.702532) can0 113#00000500520D0000
(1522028021.702773) can0 115#4E00020100000177
(1522028021.703003) can0 117#F935802B802B802B
(1522028021.703247) can0 118#220D000060000000
(1522028021.703489) can0 119#4305000000000000
(1522028021.703727) can0 122#7D7D3C00F4000356
(1522028021.703976) can0 123#0000300000000000
(1522028021.704210) can0 342#0007073D0E0039A6
(1522028021.704466) can0 344#A5A1B1A845AD0000
(1522028021.707054) can0 121#0000000040000000
(1522028021.707298) can0 140#0000000080000925
(1522028021.707536) can0 229#003B8023000009F6
(1522028021.707781) can0 010#0F27000080008068
(1522028021.708023) can0 25C#F8600000020D09F6
(1522028021.708629) can0 091#00007F447EF10001
(1522028021.709300) can0 14A#6BF597F70005FFFF
(1522028021.709535) can0 170#82B482B882B482B1
(1522028021.709779) can0 211#00A0000520000407
(1522028021.710017) can0 253#020002007DFC035D
(1522028021.710246) can0 254#918F0F3E93A70351
(1522028021.712283) can0 264#0003848C02007D73
(1522028021.712554) can0 494#B42412000185055B
(1522028021.717048) can0 050#8000900000000000
(1522028021.717290) can0 111#B000100000006000
(1522028021.717530) can0 113#00000500520D0000
(1522028021.717776) can0 010#0017000080008068
(1522028021.718019) can0 115#4E00020000000175
(1522028021.718249) can0 117#F935802B802B802B
(1522028021.718493) can0 118#220D000060000000
(1522028021.718725) can0 04A#00D8D8D8FED8D8D8
(1522028021.718967) can0 119#4305000000000000
(1522028021.719205) can0 122#7D7D3C00F4000355
(1522028021.719454) can0 123#0000300000000000
(1522028021.719702) can0 299#0600000000000000
(1522028021.719948) can0 301#8E00000000000000
(1522028021.720182) can0 339#153F00D1C64DC1FD
(1522028021.727044) can0 121#0000000040000000
(1522028021.727292) can0 140#0000000080000927
(1522028021.727532) can0 229#003B8023000009F0
(1522028021.727778) can0 010#0107000080008068
(1522028021.728025) can0 25C#F8600000020D09F0
(1522028021.728261) can0 444#014A7D7B00009398
(1522028021.728569) can0 091#00007F367EEB0001
(1522028021.729285) can0 14A#6BF4A7F50005FFFF
(1522028021.729519) can0 170#82B682B682B482B4
(1522028021.729762) can0 211#00A0000520000407
(1522028021.730004) can0 253#01FF02017DFD035D
(1522028021.730236) can0 254#918FF93EA3A70357
(1522028021.730470) can0 262#07FD07FDC25A08A6
(1522028021.730718) can0 263#00000FFF00000FFE
(1522028021.730953) can0 346#F30C2B80FD000000
(1522028021.731201) can0 417#0002820000000000
(1522028021.732059) can0 050#8000900000000000
(1522028021.732301) can0 111#B000100000006000
(1522028021.732541) can0 113#00000500520D0000
(1522028021.732781) can0 115#4E0001FF00000175
(1522028021.733012) can0 117#F935802C802A802C
(1522028021.733256) can0 118#220D000060000000
(1522028021.733498) can0 119#4305000000000000
(1522028021.733738) can0 122#7D7D3C00F4000354
(1522028021.733987) can0 123#0000300000000000
(1522028021.734225) can0 264#0003948C0C008173
(1522028021.734487) can0 342#0027073F0E0039A6
(1522028021.734743) can0 344#85A1B1A845AD4000
(1522028021.735022) can0 441#C06A2A0000000000
(1522028021.737739) can0 010#02F7000080008068
(1522028021.742036) can0 339#153F00D1C64DC1FD
(1522028021.742353) can0 350#002403DA42E1E39C
(1522028021.747046) can0 050#8000900000000000
(1522028021.747287) can0 111#B000100000006000
(1522028021.747530) can0 113#00000500520D0000
(1522028021.747772) can0 010#03E7000080008068
(1522028021.748012) can0 115#4E0001FF00000175
(1522028021.748242) can0 117#F935802C802A802C
(1522028021.748489) can0 118#220C000060000000
(1522028021.748718) can0 04B#D8D8D8D8D8D8C000
(1522028021.748961) can0 091#00007F247EE90001
(1522028021.749203) can0 119#4305000000000000
(1522028021.749453) can0 121#0000000040000000
(1522028021.749694) can0 122#7D7D3C00F4000355
(1522028021.749939) can0 123#0000300000000000
(1522028021.750183) can0 140#0000000080000923
(1522028021.750419) can0 14A#6BF3B7F30005FFFF
(1522028021.750653) can0 170#82B682B682B482AF
(1522028021.750896) can0 211#00A0000520000407
(1522028021.751135) can0 229#003B8023000009F0
(1522028021.751378) can0 253#01FE02007DFD035C
(1522028021.751608) can0 254#918FEF3EB3A70351
(1522028021.751854) can0 25C#F8600000020C09F0
(1522028021.752100) can0 299#0600000000000000
(1522028021.752340) can0 264#0003848C00000173
(1522028021.752589) can0 301#8E00000000000000
(1522028021.752829) can0 340#191A80007F0FBFFF
(1522028021.753065) can0 494#B42412000185055B
(1522028021.757053) can0 4EC#8B22980000000000
(1522028021.757697) can0 010#04D7000080008068
(1522028021.759341) can0 262#07FD07FDC45C0AA8
(1522028021.759601) can0 263#00000FFF00000FFE
(1522028021.759826) can0 346#F20D2B80FD000000
(1522028021.760074) can0 417#0002820000000000
(1522028021.762053) can0 050#8000900000000000
(1522028021.762291) can0 111#B000100000006000
(1522028021.762530) can0 113#00000500520D0000
(1522028021.762773) can0 115#4E00020000000175
(1522028021.763003) can0 117#F935802C8029802C
(1522028021.763247) can0 118#220D000060000000
(1522028021.763489) can0 119#4305000000000000
(1522028021.763729) can0 122#7D7D3C00F4000354
(1522028021.763978) can0 123#0000300000000000
(1522028021.764214) can0 342#0027077F0E0039A6
(1522028021.764468) can0 344#A5A1B1A845AC4000
(1522028021.767050) can0 121#0000000040000000
(1522028021.767299) can0 140#0000000080000923
(1522028021.767538) can0 229#003B8023000009F1
(1522028021.767780) can0 25C#F8600000020D09F1
(1522028021.768023) can0 010#05C7000080008068
(1522028021.768255) can0 339#153F00D4C64DC1FD
(1522028021.768608) can0 091#00007F1D7EE70001
(1522028021.769303) can0 14A#6BF2C7F30005FFFF
(1522028021.769537) can0 170#82B682B682B482B1
(1522028021.769789) can0 211#00A0000520000407
(1522028021.770020) can0 253#01FE02027DFE035C
(1522028021.770252) can0 254#918FDF3EC3A70351
(1522028021.772288) can0 264#0003848C01007D73
(1522028021.777044) can0 050#8000900000000000
(1522028021.777286) can0 111#B000100000006000
(1522028021.777526) can0 113#00000500520D0000
(1522028021.777771) can0 010#06B7000080008068
(1522028021.778013) can0 115#4E00020000000175
(1522028021.778243) can0 117#F935802C802A802C
(1522028021.778487) can0 118#220D000060000000
(1522028021.778729) can0 119#4305000000000000
(1522028021.778969) can0 122#7D7D3C00F4000353
(1522028021.779218) can0 123#0000300000000000
(1522028021.779464) can0 299#0600000000000000
(1522028021.779715) can0 301#8E00000000000000
(1522028021.787044) can0 121#0000000040000000
(1522028021.787288) can0 140#0000000080000923
(1522028021.787528) can0 229#003B8023000009F8
(1522028021.787772) can0 010#07A7000080008068
(1522028021.788017) can0 25C#F8600000020D09F8
(1522028021.788533) can0 091#00007F1A7EE50001
(1522028021.789303) can0 14A#6BF1D7F30005FFFF
(1522028021.789537) can0 170#82B682B682B482AF
(1522028021.789782) can0 211#00A0000520000407
(1522028021.790021) can0 253#01FF02017DFE035C
(1522028021.790251) can0 254#918FCF3ED3A70351
(1522028021.790486) can0 262#07FD07FDC55E0CAA
(1522028021.790734) can0 263#00000FFF00000FFE
(1522028021.790972) can0 346#F10E2B80FD000000
(1522028021.791220) can0 417#0002820000000000
(1522028021.791468) can0 65A#0000000800000000
(1522028021.792055) can0 050#8000900000000000
(1522028021.792296) can0 111#B000100000006000
(1522028021.792537) can0 113#00000500520D0000
(1522028021.792777) can0 115#4E0001FF00000174
(1522028021.793007) can0 117#F935802C802B802C
(1522028021.793251) can0 118#220D000060000000
(1522028021.793493) can0 119#4305000000000000
(1522028021.793736) can0 122#7D7D3C00F4000353
(1522028021.793983) can0 123#0000300000000000
(1522028021.794219) can0 264#0003948C0E008173
(1522028021.794452) can0 339#153F00D4C64DC1FD
(1522028021.794686) can0 342#0007073D0E0039A6
(1522028021.794947) can0 344#A5A1B1A845AC0000
(1522028021.795213) can0 40A#C102393937383100
(1522028021.795489) can0 441#C06A2A0000000000
(1522028021.795759) can0 494#B4A412000185055B
(1522028021.797045) can0 444#014A7D7C00009398
(1522028021.797735) can0 010#0897000080008068
(1522028021.807041) can0 050#8000900000000000
(1522028021.807281) can0 111#B000100000006000
(1522028021.807521) can0 113#00000500520D0000
(1522028021.807763) can0 010#0987000080008068
(1522028021.808004) can0 115#4E0001FF00000174
(1522028021.808234) can0 117#F935802C802A802C
(1522028021.808478) can0 118#220D000060000000
(1522028021.808720) can0 091#00007F1A7EEB0001
(1522028021.808963) can0 119#4305000000000000
(1522028021.809215) can0 121#0000000040000000
(1522028021.809451) can0 122#7D7D3C00F4000352
(1522028021.809702) can0 123#0000300000000000
(1522028021.809944) can0 140#0000000080000924
(1522028021.810180) can0 14A#6BF0E7F20005FFFF
(1522028021.810412) can0 170#82B882B882B482B1
(1522028021.810654) can0 211#00A0000520000407
(1522028021.810894) can0 229#003B8023000009F8
(1522028021.811136) can0 253#01FF02027DFF035C
(1522028021.811368) can0 254#918FBF3EE3A70351
(1522028021.811613) can0 25C#F8600000020D09F8
(1522028021.811859) can0 299#0600000000000000
(1522028021.812105) can0 301#8F00000000000000
(1522028021.812343) can0 264#0003848C00007D73
(1522028021.812611) can0 350#002403DA42BF639C
(1522028021.817031) can0 339#153F00D4C64DC1FD
(1522028021.817689) can0 010#0A7500318000806A
(1522028021.818487) can0 04A#00D8D8D8FED8D8D8
(1522028021.819327) can0 262#07FD07FDC75F0DAB
(1522028021.819576) can0 263#00000FFF00000FFE
(1522028021.819817) can0 346#F00F2B80FD000000
(1522028021.820064) can0 417#0002820000000000
(1522028021.822048) can0 050#8000900000000000
(1522028021.822290) can0 111#B000100000006000
(1522028021.822530) can0 113#00000500520D0000
(1522028021.822770) can0 115#4E0001FF00000174
(1522028021.823000) can0 117#F935802C802A802C
(1522028021.823244) can0 118#220D000060000000
(1522028021.823487) can0 119#4305000000000000
(1522028021.823725) can0 122#7D7D3C00F4000352
(1522028021.823973) can0 123#0000300000000000
(1522028021.824209) can0 342#0027073F8E0039A6
(1522028021.824463) can0 344#A5A1B1A845AC4000
(1522028021.824747) can0 400#1E00000000000001
(1522028021.825014) can0 405#02FF3B00390039A6
(1522028021.827046) can0 121#0000000040000000
(1522028021.827290) can0 140#0000000080000923
(1522028021.827528) can0 229#003B8023000009F6
(1522028021.827770) can0 25C#F8600000020D09F6
(1522028021.828011) can0 010#0B6500318000806A
(1522028021.828609) can0 091#00007F287EEF0001
(1522028021.829339) can0 14A#6BEFF7F40005FFFF
(1522028021.829573) can0 170#82B882B682B682B1
(1522028021.829817) can0 211#00A0000520000407
(1522028021.830054) can0 253#020002027DFF035D
(1522028021.830286) can0 254#918FAF3EF3A70351
(1522028021.832280) can0 264#0003948C0C008173
(1522028021.832550) can0 494#B42412000185055B
(1522028021.837044) can0 050#8000900000000000
(1522028021.837286) can0 111#B000100000006000
(1522028021.837526) can0 113#00000500520D0000
(1522028021.837769) can0 010#0C5500318000806A
(1522028021.838009) can0 115#4E0001FF00000174
(1522028021.838239) can0 117#F935802C802B802C
(1522028021.838483) can0 118#220D000060000000
(1522028021.838725) can0 119#4305000000000000
(1522028021.838966) can0 122#7D7D3C00F4000351
(1522028021.839214) can0 123#0000300000000000
(1522028021.839460) can0 299#0600000000000000
(1522028021.839709) can0 301#8F00000000000000
(1522028021.842030) can0 339#153F00D4C64DC1FD
(1522028021.847068) can0 121#0000000040000000
(1522028021.847316) can0 140#0000000080000927
(1522028021.847556) can0 229#003B8023000009F0
(1522028021.847792) can0 010#0DB280318010806D
(1522028021.848039) can0 25C#F8600000020D09F0
(1522028021.848516) can0 04B#D8D8D8D8D8D8C000
(1522028021.848756) can0 091#00007F327EF10001
(1522028021.848997) can0 340#191A80007F0FBFFF
(1522028021.849288) can0 14A#6BFE07F50005FFFF
(1522028021.849519) can0 170#82B682B882B482B4
(1522028021.849763) can0 211#00A0000520000407
(1522028021.849997) can0 253#020102027DFF035E
(1522028021.850231) can0 254#918F9F3E03A70351
(1522028021.850465) can0 262#07FD07FDC8610FAD
(1522028021.850713) can0 263#00000FFF00000FFE
(1522028021.850954) can0 346#FF002B80FD000000
(1522028021.851202) can0 417#0002820000000000
(1522028021.852054) can0 050#8000900000000000
(1522028021.852296) can0 111#B000100000006000
(1522028021.852536) can0 113#00000500520D0000
(1522028021.852776) can0 115#4E00020100000177
(1522028021.853006) can0 117#F935802C802B802C
(1522028021.853250) can0 118#220D000060000000
(1522028021.853493) can0 119#4305000000000000
(1522028021.853733) can0 122#7D7D3C00F4000351
(1522028021.853981) can0 123#0000300000000000
(1522028021.854221) can0 264#0003848C00000173
(1522028021.854481) can0 342#0007073D0E0039A6
(1522028021.854741) can0 344#85A1B1A845AC0000
(1522028021.855026) can0 441#C06A2A0000000000
(1522028021.857046) can0 4EC#8B22980000000000
(1522028021.857726) can0 010#0EA280318010806D
(1522028021.867077) can0 050#8000900000000000
(1522028021.867285) can0 111#B000100000006000
(1522028021.867522) can0 113#00000500520D0000
(1522028021.867762) can0 010#0F9280318010806D
(1522028021.868000) can0 115#4E00020000000176
(1522028021.868231) can0 117#F935802B802B802B
(1522028021.868480) can0 118#220D000060000000
(1522028021.868717) can0 091#00007F397EF70001
(1522028021.868958) can0 119#4305000000000000
(1522028021.869209) can0 121#0000000040000000
(1522028021.869461) can0 122#7D7D3C00F4000351
(1522028021.869708) can0 123#0000300000000000
(1522028021.869946) can0 140#0000000080000925
(1522028021.870184) can0 14A#6BFD17F60005FFFF
(1522028021.870421) can0 170#82BB82B882B482B4
(1522028021.870662) can0 211#00A0000520000407
(1522028021.870898) can0 229#003B8023000009F0
(1522028021.871134) can0 253#020002027DFF035E
(1522028021.871369) can0 254#918F893E13A70357
(1522028021.871623) can0 25C#F8600000020D09F0
(1522028021.871861) can0 299#0600000000000000
(1522028021.872106) can0 301#8F00000000000000
(1522028021.872341) can0 264#0003948C0F00FD73
(1522028021.872575) can0 339#153F00D8C64DC1FD
(1522028021.872815) can0 444#014A7E7C00009398
(1522028021.873051) can0 494#B4A412000185055B
(1522028021.877688) can0 010#008280318010806D
(1522028021.879288) can0 262#07FD07FDCA6210AE
(1522028021.879536) can0 263#00000FFF00000FFE
(1522028021.879785) can0 346#FE012B80FD000000
(1522028021.880022) can0 417#0002820000000000
(1522028021.882051) can0 050#8000900000000000
(1522028021.882293) can0 111#B000100000006000
(1522028021.882530) can0 113#00000500520D0000
(1522028021.882775) can0 115#4E00020000000176
(1522028021.883008) can0 117#F935802A802B802A
(1522028021.883247) can0 118#220D000060000000
(1522028021.883484) can0 119#4305000000000000
(1522028021.883725) can0 122#7D7D3C00F4000352
(1522028021.883982) can0 123#0000300000000000
(1522028021.884246) can0 342#0027077F0E0039A6
(1522028021.884467) can0 344#A5A1B1A845AC4000
(1522028021.884730) can0 350#002403DA42BF639C
(1522028021.887098) can0 121#0000000040000000
(1522028021.887300) can0 140#0000000080000927
(1522028021.887534) can0 229#003B8023000009EE
(1522028021.887777) can0 010#017280318010806D
(1522028021.888018) can0 25C#F8600000020D09EE
(1522028021.888600) can0 091#00007F397EF90001
(1522028021.889311) can0 14A#6BFC27F80005FFFF
(1522028021.889545) can0 170#82BB82BD82B682B8
(1522028021.889799) can0 211#00A0000520000407
(1522028021.890027) can0 253#020202037DFE0360
(1522028021.890260) can0 254#918F793E23A70357
(1522028021.890506) can0 65A#0000000800010000
(1522028021.892083) can0 339#153F00D8C64DC1FD
(1522028021.892291) can0 264#0003848C00000173
(1522028021.897095) can0 050#8000900000000000
(1522028021.897283) can0 111#B000100000006000
(1522028021.897521) can0 113#00000500520D0000
(1522028021.897759) can0 010#026280318010806D
(1522028021.898003) can0 115#4E0001FF00000175
(1522028021.898238) can0 117#F935802B802A802B
(1522028021.898478) can0 118#220D000060000000
(1522028021.898721) can0 119#4305000000000000
(1522028021.898962) can0 122#7D7D3C00F4000353
(1522028021.899208) can0 123#0000300000000000
(1522028021.899453) can0 299#0600000000000000
(1522028021.899699) can0 301#9000000000000000
(1522028021.907083) can0 121#0000000040000000
(1522028021.907287) can0 140#0000000080000925
(1522028021.907522) can0 229#003B8023000009EF
(1522028021.907758) can0 010#035280318010806D
(1522028021.907999) can0 25C#F8600000020D09EF
(1522028021.908514) can0 091#00007F367EF90001
(1522028021.909302) can0 14A#6BFB37F80005FFFF
(1522028021.909526) can0 170#82C282BB82B482B8
(1522028021.909774) can0 211#00A0000520000407
(1522028021.910009) can0 253#020202057DFD0361
(1522028021.910238) can0 254#918F693E33A70357
(1522028021.910472) can0 262#07FD07FDCC6412B0
(1522028021.910726) can0 263#00000FFF00000FFE
(1522028021.910957) can0 346#FD022B80FD000000
(1522028021.911204) can0 417#0002820000000000
(1522028021.912058) can0 050#8000900000000000
(1522028021.912290) can0 111#B000100000006000
(1522028021.912529) can0 113#00000500520D0000
(1522028021.912769) can0 115#4E0001FF00000175
(1522028021.912999) can0 117#F935802B802A802B
(1522028021.913243) can0 118#220D000060000000
(1522028021.913485) can0 119#4305000000000000
(1522028021.913725) can0 122#7D7D3C00F4000354
(1522028021.913974) can0 123#0000300000000000
(1522028021.914221) can0 264#0003948C0C00FD73
(1522028021.914485) can0 342#0027073F0E0039A6
(1522028021.914745) can0 344#A5A1B1A845AC4000
(1522028021.915005) can0 40A#C103488032880911
(1522028021.915282) can0 441#C06A2A0000000000
(1522028021.915548) can0 494#B42412000185055B
(1522028021.917093) can0 339#153F00D8C64DC1FD
(1522028021.917761) can0 010#044280318010806D
(1522028021.918614) can0 04A#00D8D8D8FED8D8D8
(1522028021.927120) can0 050#8000900000000000
(1522028021.927305) can0 111#B000100000006000
(1522028021.927577) can0 113#00000500520D0000
(1522028021.927784) can0 010#053280318010806D
(1522028021.928023) can0 115#4E0001FF00000175
(1522028021.928254) can0 117#F935802C802A802C
(1522028021.928496) can0 091#00007F167EFB0001
(1522028021.928738) can0 118#220D000060000000
(1522028021.928980) can0 119#4305000000000000
(1522028021.929237) can0 121#0000000040000000
(1522028021.929473) can0 122#7D7D3C00F4000354
(1522028021.929721) can0 123#0000300000000000
(1522028021.929967) can0 140#0000000080000920
(1522028021.930209) can0 14A#6BFA47F80005FFFF
(1522028021.930443) can0 170#82B682BB82B482B6
(1522028021.930685) can0 211#00A0000520000407
(1522028021.930925) can0 229#003B8023000009F0
(1522028021.931170) can0 253#020602047DFA0364
(1522028021.931405) can0 254#918F593E43A70357
(1522028021.931644) can0 25C#F8600000020D09F0
(1522028021.931889) can0 299#0600000000000000
(1522028021.932133) can0 301#9000000000000000
(1522028021.932372) can0 264#0003848C00000173
(1522028021.937032) can0 444#014A7E7C00009398
(1522028021.937685) can0 010#06B200318000806D
(1522028021.939295) can0 262#07FD07FDCD6614B2
(1522028021.939517) can0 263#00000FFF00000FFE
(1522028021.939766) can0 346#FC032B80FD000000
(1522028021.940003) can0 417#0002820000000000
(1522028021.942040) can0 050#8000900000000000
(1522028021.942282) can0 111#B000100000006000
(1522028021.942522) can0 113#00000500520D0000
(1522028021.942762) can0 115#4E0001FF00000175
(1522028021.942992) can0 117#F935802C802A802C
(1522028021.943236) can0 118#220D000060000000
(1522028021.943478) can0 119#4305000000000000
(1522028021.943716) can0 122#7D7D3C00F4000355
(1522028021.943965) can0 123#0000300000000000
(1522028021.944199) can0 339#153F00D8C64DC1FD
(1522028021.944433) can0 342#0007073D0E0039A6
(1522028021.944691) can0 344#A5A1B1A845AC0000
(1522028021.947073) can0 121#0000000040000000
(1522028021.947289) can0 140#0000000080000921
(1522028021.947526) can0 229#003B8023000009F2
(1522028021.947768) can0 25C#F8600000020D09F2
(1522028021.948010) can0 010#07A200318000806D
(1522028021.948554) can0 04B#D8D8D8D8D8D8C000
(1522028021.948798) can0 091#00007F057EFD0001
(1522028021.949038) can0 340#191A80007F0FBFFF
(1522028021.949288) can0 14A#6BF957F90005FFFF
(1522028021.949520) can0 170#82B882B682B482B6
(1522028021.949763) can0 211#00A0000520000407
(1522028021.950002) can0 253#020202047DFB0364
(1522028021.950230) can0 254#918F493E53A70357
(1522028021.952286) can0 264#0003848C02000173
(1522028021.952545) can0 350#002403DA42BFE39C
(1522028021.952816) can0 494#B42412000185055B
(1522028021.957067) can0 050#8000900000000000
(1522028021.957281) can0 111#B000100000006000
(1522028021.957521) can0 113#00000500520D0000
(1522028021.957762) can0 010#089200008000806D
(1522028021.958000) can0 115#4E0001FE00000173
(1522028021.958231) can0 117#F935802C802A802C
(1522028021.958475) can0 118#220D000060000000
(1522028021.958717) can0 119#4305000000000000
(1522028021.958955) can0 122#7D7D3C00F4000355
(1522028021.959204) can0 123#0000300000000000
(1522028021.959449) can0 299#0600000000000000
(1522028021.959706) can0 301#9100000000000000
(1522028021.959940) can0 4EC#8B22980000000000
(1522028021.967071) can0 121#0000000040000000
(1522028021.967281) can0 140#0000000080000926
(1522028021.967517) can0 229#003B8023000009E7
(1522028021.967761) can0 010#098200008000806D
(1522028021.968003) can0 25C#F8600000020D09E7
(1522028021.968239) can0 339#153F00DBC64DC1FD
(1522028021.968493) can0 091#00007F1A7F030001
(1522028021.969323) can0 14A#6BF867FA0005FFFF
(1522028021.969549) can0 170#82BB82B482B682B6
(1522028021.969792) can0 211#00A0000520000407
(1522028021.970030) can0 253#020202047DFC0365
(1522028021.970262) can0 254#918F393E63A70357
(1522028021.970496) can0 262#07FD07FDCF6715B3
(1522028021.970744) can0 263#00000FFF00000FFE
(1522028021.970984) can0 346#FB042B80FD000000
(1522028021.971232) can0 417#0002820000000000
(1522028021.972057) can0 050#8000900000000000
(1522028021.972299) can0 111#B000100000006000
(1522028021.972541) can0 113#00000500520E0000
(1522028021.972779) can0 115#4E0001FE00000173
(1522028021.973011) can0 117#F935802D802A802D
(1522028021.973255) can0 118#220D000060000000
(1522028021.973498) can0 119#4305000000000000
(1522028021.973737) can0 122#7D7D3C00F4000355
(1522028021.973985) can0 123#0000300000000000
(1522028021.974220) can0 264#0003948C0D00FD73
(1522028021.974488) can0 342#0027077F0E0039A6
(1522028021.974747) can0 344#85A1B1A845AC4000
(1522028021.975025) can0 441#C06A2A0000000000
(1522028021.977754) can0 010#0A7500318000806A
(1522028021.987056) can0 050#8000900000000000
(1522028021.987275) can0 111#B000100000006000
(1522028021.987516) can0 113#00000500520E0000
(1522028021.987756) can0 010#0B6500318000806A
(1522028021.987994) can0 115#4E0001FF00000173
(1522028021.988226) can0 117#F935802D802A802D
(1522028021.988469) can0 091#00007F367F030001
(1522028021.988714) can0 118#220D000060000000
(1522028021.988956) can0 119#4305000000000000
(1522028021.989206) can0 121#0000000040000000
(1522028021.989444) can0 122#7D7D3C00F4000356
(1522028021.989695) can0 123#0000300000000000
(1522028021.989937) can0 140#0000000080000925
(1522028021.990173) can0 14A#6BF777FB0005FFFF
(1522028021.990405) can0 170#82BB82B682B882B6
(1522028021.990647) can0 211#00A0000520000407
(1522028021.990885) can0 229#003B8023000009E3
(1522028021.991124) can0 253#020002037DFE0365
(1522028021.991358) can0 254#918F293E73A70357
(1522028021.991600) can0 25C#F8600000020D09E3
(1522028021.991846) can0 299#0600000000000000
(1522028021.992101) can0 301#9100000000000000
(1522028021.992341) can0 264#0003848C00000173
(1522028021.992573) can0 339#153F00DBC64DC1FD
(1522028021.992805) can0 494#B4A412000185055B
(1522028021.993051) can0 65A#0000000800000000
(1522028021.997684) can0 010#0C47006280108068
(1522028021.999278) can0 262#07FD07FDD06917B5
(1522028021.999525) can0 263#00000FFF00000FFE
(1522028021.999776) can0 346#FA052B80FD000000
(1522028022.000015) can0 417#0002820000000000
(1522028022.002082) can0 050#8000900000000000
(1522028022.002280) can0 111#B000100000006000
(1522028022.002523) can0 113#00000500520E0000
(1522028022.002762) can0 115#4E0001FF00000174
(1522028022.002996) can0 117#F935802D802A802D
(1522028022.003239) can0 118#220D000060000000
(1522028022.003480) can0 119#4305000000000000
(1522028022.003720) can0 122#7D7D3C00F4000356
(1522028022.003969) can0 123#0000300000000000
(1522028022.004200) can0 342#0007073D0E0039A6
(1522028022.004464) can0 344#A5A1B1A845AC0000
(1522028022.007083) can0 121#0000000040000000
(1522028022.007286) can0 140#0000000080000924
(1522028022.007524) can0 229#003B8023000009DD
(1522028022.007764) can0 25C#F8600000020D09DD
(1522028022.008041) can0 010#0D29006280208066
(1522028022.008239) can0 444#014A7C7A00009398
(1522028022.008527) can0 091#00007F597EFF0001
(1522028022.009286) can0 14A#6BF687FB0005FFFF
(1522028022.009506) can0 170#82A982BB82B882B8
(1522028022.009749) can0 211#00A0000520000407
(1522028022.009983) can0 253#020002027DFF0365
(1522028022.010212) can0 254#918F193E83A70357
(1522028022.012334) can0 264#0003948C0C00FD73
(1522028022.017090) can0 050#8000900000000000
(1522028022.017283) can0 111#B000100000006000
(1522028022.017519) can0 113#00000500520D0000
(1522028022.017757) can0 010#0E0A00A380318064
(1522028022.017994) can0 115#4E0001FF00000174
(1522028022.018228) can0 117#F935802D802A802D
(1522028022.018460) can0 04A#00D8D8D8FED8D8D8
(1522028022.018702) can0 118#220D000060000000
(1522028022.018943) can0 119#4305000000000000
(1522028022.019182) can0 122#7D7D3C00F4000356
(1522028022.019430) can0 123#0000300000000000
(1522028022.019688) can0 299#0600000000000000
(1522028022.019922) can0 301#9100000000000000
(1522028022.020154) can0 339#153F00DBC64DC1FD
(1522028022.022293) can0 350#000003DA42BF639C
(1522028022.027060) can0 121#0000000040000000
(1522028022.027280) can0 140#0000000080000924
(1522028022.027515) can0 229#003B8023000009E9
(1522028022.027751) can0 010#0FFA00A380318064
(1522028022.027991) can0 25C#F8600000020D09E9
(1522028022.028461) can0 091#00007F757EF70001
(1522028022.029297) can0 14A#6BF597FA0005FFFF
(1522028022.029531) can0 170#82AC82BD82B882B8
(1522028022.029785) can0 211#00A0000520000407
(1522028022.030015) can0 253#01FF02027DFC0365
(1522028022.030248) can0 254#918F043E93A7035C
(1522028022.030480) can0 262#07FD07FDD26A18B6
(1522028022.030728) can0 263#00000FFF00000FFE
(1522028022.030966) can0 346#F9062B80FD000000
(1522028022.031215) can0 417#0002820000000000
(1522028022.032043) can0 050#8000900000000000
(1522028022.032294) can0 111#B000100000006000
(1522028022.032537) can0 113#00000500520D0000
(1522028022.032769) can0 115#4E0001FF00000174
(1522028022.032999) can0 117#F935802C802C802C
(1522028022.033240) can0 118#220D000060000000
(1522028022.033481) can0 119#4305000000000000
(1522028022.033719) can0 122#7D7D3C00F4000356
(1522028022.033968) can0 123#0000300000000000
(1522028022.034208) can0 264#0003848C00000173
(1522028022.034470) can0 342#0027073F0E0039A6
(1522028022.034726) can0 344#A5A1B1A845AB4000
(1522028022.035027) can0 40A#C104017508700000
(1522028022.035304) can0 441#C06A2A0000000000
(1522028022.035575) can0 494#B42412000185055B
(1522028022.037721) can0 010#00EA00A380318064
(1522028022.042056) can0 339#153F00DBC64DC1FD
(1522028022.047040) can0 050#8000900000000000
(1522028022.047271) can0 111#B000100000006000
(1522028022.047507) can0 113#00000500520D0000
(1522028022.047771) can0 010#01DA00A380318064
(1522028022.047986) can0 115#4E0001FF00000174
(1522028022.048217) can0 117#F935802C802B802C
(1522028022.048447) can0 04B#D8D8D8D8D8D8C000
(1522028022.048690) can0 091#00007F837EF10001
(1522028022.048932) can0 118#220D000060000000
(1522028022.049174) can0 119#4305000000000000
(1522028022.049423) can0 121#0000000040000000
(1522028022.049673) can0 122#7D7D3C00F4000358
(1522028022.049910) can0 123#0000300000000000
(1522028022.050156) can0 140#0000000080000921
(1522028022.050393) can0 14A#6BF4A7F80005FFFF
(1522028022.050628) can0 170#82B682BB82B882B6
(1522028022.050874) can0 211#00A0000520000407
(1522028022.051111) can0 229#003B8023000009EC
(1522028022.051350) can0 253#01FE02017DF80364
(1522028022.051579) can0 254#918FF93EA3A70357
(1522028022.051822) can0 25C#F8600000020D09EC
(1522028022.052074) can0 299#0600000000000000
(1522028022.052307) can0 264#0003948C0E008173
(1522028022.052547) can0 301#9200000000000000
(1522028022.052786) can0 340#191A80007F0FBFFF
(1522028022.053018) can0 454#3730333238343133
(1522028022.057064) can0 4EC#8B22980000000000
(1522028022.057676) can0 010#02CA00A380318064
(1522028022.059266) can0 262#07FD07FDD46C1AB8
(1522028022.059512) can0 263#00000FFF00000FFE
(1522028022.059761) can0 346#F8072B80FD000000
(1522028022.059998) can0 417#0002820000000000
(1522028022.062039) can0 050#8000900000000000
(1522028022.062281) can0 111#B000100000006000
(1522028022.062518) can0 113#00000500520D0000
(1522028022.062758) can0 115#4E00020000000174
(1522028022.062989) can0 117#F935802D802C802D
(1522028022.063233) can0 118#220D000060000000
(1522028022.063475) can0 119#4305000000000000
(1522028022.063715) can0 122#7D7D3C00F4000357
(1522028022.063963) can0 123#0000300000000000
(1522028022.064199) can0 342#0027077F0E0039A6
(1522028022.064454) can0 344#A5A1B1A845AB4000
(1522028022.067149) can0 121#0000000040000000
(1522028022.067396) can0 140#000000008000091F
(1522028022.067637) can0 229#003B8023000009F3
(1522028022.067870) can0 010#03BA00A380318064
(1522028022.068116) can0 25C#F8600000020D09F3
(1522028022.068346) can0 339#153F00DEC64DC1FD
(1522028022.068588) can0 091#00007F6E7EEF0001
(1522028022.068837) can0 581#0000FFFFFFFFFFFF
(1522028022.069266) can0 14A#6BF3B7F60005FFFF
(1522028022.069498) can0 170#82B882B882B882B4
(1522028022.069748) can0 211#00A0000520000407
(1522028022.069978) can0 253#01FE02027DF90364
(1522028022.070210) can0 254#918FE93EB3A70357
(1522028022.072273) can0 264#0003848C01007D73
(1522028022.072551) can0 400#1F01000001000100
(1522028022.072831) can0 405#2200000000000000
(1522028022.073108) can0 494#B4A412000185055B
(1522028022.077032) can0 050#8000900000000000
(1522028022.077274) can0 111#B000100000006000
(1522028022.077514) can0 113#00000500520D0000
(1522028022.077748) can0 010#04AA00A380318064
(1522028022.077988) can0 115#4E00020000000174
(1522028022.078219) can0 117#F935802C802C802C
(1522028022.078462) can0 118#220D000060000000
(1522028022.078704) can0 119#4305000000000000
(1522028022.078945) can0 122#7D7D3C00F4000357
(1522028022.079193) can0 123#0000300000000000
(1522028022.079439) can0 299#0600000000000000
(1522028022.079686) can0 301#9200000000000000
(1522028022.079922) can0 444#014A7C7B00009398
(1522028022.087028) can0 121#0000000040000000
(1522028022.087274) can0 140#0000000080000920
(1522028022.087512) can0 229#003B8023000009ED
(1522028022.087750) can0 010#059D003180318061
(1522028022.087990) can0 25C#F8600000020D09ED
(1522028022.088430) can0 091#00007F4B7EF10001
(1522028022.089273) can0 14A#6BF2C7F50005FFFF
(1522028022.089505) can0 170#82B882BB82B882B8
(1522028022.089750) can0 211#00A0000520000407
(1522028022.089985) can0 253#01FD02017DFA0363
(1522028022.090215) can0 254#918FD93EC3A70357
(1522028022.090448) can0 262#07FD07FDD56E1CBA
(1522028022.090695) can0 263#00000FFF00000FFE
(1522028022.090934) can0 346#F7082B80FD000000
(1522028022.091182) can0 417#0002820000000000
(1522028022.091430) can0 65A#0000000800000000
(1522028022.092040) can0 050#8000900000000000
(1522028022.092282) can0 111#B000100000006000
(1522028022.092523) can0 113#00000500520D0000
(1522028022.092761) can0 115#4E00020100000176
(1522028022.092991) can0 117#F935802C802C802C
(1522028022.093235) can0 118#220D000060000000
(1522028022.093477) can0 119#4305000000000000
(1522028022.093718) can0 122#7D7D3C00F4000357
(1522028022.093966) can0 123#0000300000000000
(1522028022.094204) can0 264#0003948C0C008173
(1522028022.094436) can0 339#153F00DEC64DC1FD
(1522028022.094670) can0 342#0007073D0E0039A6
(1522028022.094927) can0 344#85A1B1A845AB0000
(1522028022.095189) can0 350#002403DA42BFE39C
(1522028022.095467) can0 441#C06A2A0000000000
(1522028022.097719) can0 010#069E003180208061
(1522028022.107215) can0 050#8000900000000000
(1522028022.107434) can0 111#B000100000006000
(1522028022.107674) can0 113#00000500520D0000
(1522028022.107911) can0 010#079E003180108061
(1522028022.108150) can0 115#4E00020100000176
(1522028022.108393) can0 091#00007F287EF50001
(1522028022.108626) can0 117#F935802B802C802B
(1522028022.108870) can0 118#220D000060000000
(1522028022.109112) can0 119#4305000000000000
(1522028022.109362) can0 121#0000000040000000
(1522028022.109644) can0 122#7D7D3C00F4000357
(1522028022.109852) can0 123#0000300000000000
(1522028022.110096) can0 140#0000000080000923
(1522028022.110333) can0 14A#6BF1D7F60005FFFF
(1522028022.110567) can0 170#82BD82BB82B882B8
(1522028022.110809) can0 211#00A0000520000407
(1522028022.111045) can0 229#003B8023000009EC
(1522028022.111283) can0 253#01FE02027DFC0363
(1522028022.111513) can0 254#918FC93ED3A70357
(1522028022.111754) can0 25C#F8600000020D09EC
(1522028022.112000) can0 299#0600000000000000
(1522028022.112247) can0 301#9200000000000000
(1522028022.112484) can0 264#0003848C00007D73
(1522028022.112764) can0 494#B42412000185055B
(1522028022.117015) can0 339#153F00DEC64DC1FD
(1522028022.117677) can0 010#088E003180108061
(1522028022.118381) can0 04A#00D8D8D8FED8D8D8
(1522028022.119279) can0 262#07FD07FDD76F1DBB
(1522028022.119527) can0 263#00000FFF00000FFE
(1522028022.119771) can0 346#F6092B80FD000000
(1522028022.120013) can0 417#0002820000000000
(1522028022.122032) can0 050#8000900000000000
(1522028022.122272) can0 111#B000100000006000
(1522028022.122512) can0 113#00000500520D0000
(1522028022.122750) can0 115#4E00020100000176
(1522028022.122982) can0 117#F935802B802C802B
(1522028022.123227) can0 118#220D000060000000
(1522028022.123469) can0 119#4305000000000000
(1522028022.123709) can0 122#7D7D3C00F4000357
(1522028022.123957) can0 123#0000300000000000
(1522028022.124193) can0 342#0027073F0E0039A6
(1522028022.124448) can0 344#A5A1B1A845AB4000
(1522028022.127060) can0 121#0000000040000000
(1522028022.127304) can0 140#0000000080000925
(1522028022.127540) can0 229#003B8023000009EC
(1522028022.127784) can0 010#098B000080008064
(1522028022.128024) can0 25C#F8600000020D09EC
(1522028022.128482) can0 091#00007F1A7EFB0001
(1522028022.129262) can0 14A#6BF0E7F70005FFFF
(1522028022.129496) can0 170#82BB82BB82BB82B8
(1522028022.129745) can0 211#00A0000520000407
(1522028022.129982) can0 253#01FF02027DFE0363
(1522028022.130215) can0 254#918FB93EE3A70357
(1522028022.132301) can0 264#0003848C02000173
(1522028022.137025) can0 050#8000900000000000
(1522028022.137267) can0 111#B000100000006000
(1522028022.137507) can0 113#00000500520D0000
(1522028022.137749) can0 010#0A7B000080008064
(1522028022.137990) can0 115#4E0001FF00000174
(1522028022.138220) can0 117#F935802B802B802B
(1522028022.138464) can0 118#220D000060000000
(1522028022.138706) can0 119#4305000000000000
(1522028022.138946) can0 122#7D7D3C00F4000357
(1522028022.139195) can0 123#0000300000000000
(1522028022.139441) can0 299#0600000000000000
(1522028022.139691) can0 301#9300000000000000
(1522028022.142014) can0 339#153F00DEC64DC1FD
(1522028022.147024) can0 121#0000000040000000
(1522028022.147267) can0 140#0000000080000926
(1522028022.147506) can0 229#003B8023000009E8
(1522028022.147750) can0 010#0B6B000080008064
(1522028022.147992) can0 25C#F8600000020D09E8
(1522028022.148228) can0 444#014A7C7B00009398
(1522028022.148458) can0 04B#D8D8D8D8D8D8C000
(1522028022.148700) can0 091#00007F0C7EFD0001
(1522028022.148940) can0 340#191A80007F0FBFFF
(1522028022.149268) can0 14A#6BEFF7F90005FFFF
(1522028022.149504) can0 170#82C082B882BB82BB
(1522028022.149750) can0 211#00A0000520000407
(1522028022.149985) can0 253#020002037DFE0364
(1522028022.150217) can0 254#918FA43EF3A7035C
(1522028022.150451) can0 262#07FD07FDD8711FBD
(1522028022.150699) can0 263#00000FFF00000FFE
(1522028022.150936) can0 346#F50A2B80FD000000
(1522028022.151184) can0 417#0002820000000000
(1522028022.152040) can0 050#8000900000000000
(1522028022.152282) can0 111#B000100000006000
(1522028022.152522) can0 113#00000500520D0000
(1522028022.152762) can0 115#4E0001FF00000174
(1522028022.152993) can0 117#F935802B802B802B
(1522028022.153237) can0 118#220D000060000000
(1522028022.153479) can0 119#4305000000000000
(1522028022.153720) can0 122#7D7D3C00F4000357
(1522028022.153968) can0 123#0000300000000000
(1522028022.154206) can0 264#0003948C0C008173
(1522028022.154472) can0 342#0007073D0E0039A6
(1522028022.154728) can0 344#A5A1B1A845AA0000
(1522028022.155008) can0 40A#C105FFFFFFFF0000
(1522028022.155286) can0 441#C06A2A0000000000
(1522028022.155558) can0 494#B42412000185055B
(1522028022.157037) can0 4EC#8B22980000000000
(1522028022.157723) can0 010#0C5B000080008064
(1522028022.162327) can0 350#002403DA42BF639C
(1522028022.167026) can0 050#8000900000000000
(1522028022.167267) can0 111#B000100000006000
(1522028022.167508) can0 113#00000500520D0000
(1522028022.167750) can0 010#0D4B000080008064
(1522028022.167989) can0 115#4E00020000000176
(1522028022.168220) can0 117#F935802C802A802C
(1522028022.168464) can0 091#00007F1A7EFD0001
(1522028022.168708) can0 118#220D000060000000
(1522028022.168950) can0 119#4305000000000000
(1522028022.169200) can0 121#0000000040000000
(1522028022.169438) can0 122#7D7D3C00F4000358
(1522028022.169693) can0 123#0000300000000000
(1522028022.169934) can0 140#0000000080000927
(1522028022.170173) can0 14A#6BFE07FA0005FFFF
(1522028022.170405) can0 170#82B882BB82B882B8
(1522028022.170647) can0 211#00A0000520000407
(1522028022.170883) can0 229#003B8023000009E6
(1522028022.171119) can0 253#020202027DFF0365
(1522028022.171353) can0 254#918F943E03A7035C
(1522028022.171594) can0 25C#F8600000020D09E6
(1522028022.171840) can0 299#0600000000000000
(1522028022.172088) can0 301#9300000000000000
(1522028022.172326) can0 264#0003848C01007D73
(1522028022.172558) can0 339#153F00E1C64DC1FD
(1522028022.177685) can0 010#0E3B000080008064
(1522028022.179300) can0 262#07FD07FDDA7220BE
(1522028022.179547) can0 263#00000FFF00000FFE
(1522028022.179785) can0 346#F40B2B80FD000000
(1522028022.180033) can0 417#0002820000000000
(1522028022.182025) can0 050#8000900000000000
(1522028022.182267) can0 111#B000100000006000
(1522028022.182507) can0 113#00000500520D0000
(1522028022.182747) can0 115#4E00020000000176
(1522028022.182978) can0 117#F935802C802A802C
(1522028022.183222) can0 118#220D000060000000
(1522028022.183464) can0 119#4305000000000000
(1522028022.183702) can0 122#7D7D3C00F4000359
(1522028022.183950) can0 123#0000300000000000
(1522028022.184187) can0 342#0027077F0E0039A6
(1522028022.184443) can0 344#A5A1B1A845AA4000
(1522028022.187029) can0 121#0000000040000000
(1522028022.187273) can0 140#0000000080000924
(1522028022.187511) can0 229#003B8023000009E7
(1522028022.187754) can0 010#0F2B000080008064
(1522028022.187996) can0 25C#F8600000020D09E7
(1522028022.188455) can0 091#00007F327EFD0001
(1522028022.189273) can0 14A#6BFD17FA0005FFFF
(1522028022.189508) can0 170#82BB82BB82BB82B8
(1522028022.189751) can0 211#00A0000520000407
(1522028022.189988) can0 253#020002027DFF0365
(1522028022.190226) can0 254#918F843E13A7035C
(1522028022.190475) can0 65A#0000000800000000
(1522028022.192023) can0 339#153F00E1C64DC1FD
(1522028022.192344) can0 264#0003948C0C008173
(1522028022.192615) can0 494#B4A412000185055B
(1522028022.197027) can0 050#8000900000000000
(1522028022.197269) can0 111#B000100000006000
(1522028022.197509) can0 113#00000500520D0000
(1522028022.197753) can0 010#001B000080008064
(1522028022.197992) can0 115#4E0001FE00000173
(1522028022.198222) can0 117#F935802B802B802B
(1522028022.198466) can0 118#220D000060000000
(1522028022.198708) can0 119#4305000000000000
(1522028022.198946) can0 122#7D7D3C00F4000359
(1522028022.199195) can0 123#0000300000000000
(1522028022.199440) can0 299#0600000000000000
(1522028022.199692) can0 301#9300000000000000
(1522028022.207021) can0 121#0000000040000000
(1522028022.207265) can0 140#0000000080000924
(1522028022.207501) can0 229#003B8023000009E2
(1522028022.207748) can0 010#010B000080008064
(1522028022.207987) can0 25C#F8600000020D09E2
(1522028022.208397) can0 091#00007F5C7EFF0001
(1522028022.209256) can0 14A#6BFC27FA0005FFFF
(1522028022.209488) can0 170#82B882BB82BD82B8
(1522028022.209733) can0 211#00A0000520000407
(1522028022.209972) can0 253#01FE02027E000364
(1522028022.210200) can0 254#918F743E23A7035C
(1522028022.210435) can0 262#07FD07FDDC7422C0
(1522028022.210683) can0 263#00000FFF00000FFE
(1522028022.210918) can0 346#F30C2B80FD000000
(1522028022.211165) can0 417#0002820000000000
(1522028022.212033) can0 050#8000900000000000
(1522028022.212275) can0 111#B000100000006000
(1522028022.212517) can0 113#00000500520E0000
(1522028022.212755) can0 115#4E0001FE00000173
(1522028022.212988) can0 117#F935802D802A802D
(1522028022.213233) can0 118#220D000060000000
(1522028022.213474) can0 119#4305000000000000
(1522028022.213714) can0 122#7D7D3C00F400035A
(1522028022.213963) can0 123#0000300000000000
(1522028022.214201) can0 264#0003848C02007D73
(1522028022.214463) can0 342#0027073F0E0039A6
(1522028022.214719) can0 344#85A1B1A845AA4000
(1522028022.214999) can0 441#C06A2A0000000000
(1522028022.217014) can0 339#153F00E1C64DC1FD
(1522028022.217250) can0 444#014A7D7B00009398
(1522028022.217754) can0 010#02FB000080008064
(1522028022.218420) can0 04A#00D8D8D8FED8D8D8
(1522028022.227074) can0 050#8000900000000000
(1522028022.227265) can0 111#B000100000006000
(1522028022.227504) can0 113#00000500520E0000
(1522028022.227748) can0 010#03EB000080008064
(1522028022.227986) can0 115#4E0001FF00000173
(1522028022.228216) can0 117#F935802D802B802D
(1522028022.228458) can0 091#00007F717F050001
(1522028022.228703) can0 118#220D000060000000
(1522028022.228945) can0 119#4305000000000000
(1522028022.229195) can0 121#0000000040000000
(1522028022.229435) can0 122#7D7D3C00F400035A
(1522028022.229695) can0 123#0000300000000000
(1522028022.229928) can0 140#0000000080000922
(1522028022.230166) can0 14A#6BFB37FA0005FFFF
(1522028022.230398) can0 170#82BB82BD82BB82B8
(1522028022.230640) can0 211#00A0000520000407
(1522028022.230880) can0 229#003B8023000009E0
(1522028022.231122) can0 253#01FF02017E000364
(1522028022.231352) can0 254#918F643E33A7035C
(1522028022.231595) can0 25C#F8600000020D09E0
(1522028022.231841) can0 299#0600000000000000
(1522028022.232089) can0 301#9400000000000000
(1522028022.232327) can0 264#0003948C0C008173
(1522028022.232585) can0 350#002403DA42E1639C
(1522028022.232859) can0 494#B42412000185055B
(1522028022.237723) can0 010#04DB000080008064
(1522028022.239290) can0 262#07FD07FDDD7624C2
(1522028022.239533) can0 263#00000FFF00000FFE
(1522028022.239780) can0 346#F20D2B80FD000000
(1522028022.240017) can0 417#0002820000000000
(1522028022.242037) can0 050#8000900000000000
(1522028022.242279) can0 111#B000100000006000
(1522028022.242519) can0 113#00000500520D0000
(1522028022.242757) can0 115#4E0001FE00000171
(1522028022.242987) can0 117#F935802C802B802C
(1522028022.243231) can0 118#220D000060000000
(1522028022.243473) can0 119#4305000000000000
(1522028022.243713) can0 122#7D7D3C00F400035A
(1522028022.243961) can0 123#0000300000000000
(1522028022.244194) can0 339#153F00E1C64DC1FD
(1522028022.244428) can0 342#0007073D0E0039A6
(1522028022.244684) can0 344#A5A1B1A845AA0000
(1522028022.247025) can0 121#0000000040000000
(1522028022.247269) can0 140#0000000080000923
(1522028022.247509) can0 229#003B8023000009DB
(1522028022.247753) can0 010#05CB000080008064
(1522028022.247993) can0 25C#F8600000020D09DB
(1522028022.248445) can0 04B#D8D8D8D8D8D8C000
(1522028022.248693) can0 091#00007F7F7F070001
(1522028022.248933) can0 340#191A80007F0FBFFF
(1522028022.249281) can0 14A#6BFA47FC0005FFFF
(1522028022.249517) can0 170#82BB82B882BD82B8
(1522028022.249763) can0 211#00A0000520000407
(1522028022.250002) can0 253#01FF02017DFF0364
(1522028022.250230) can0 254#918F543E43A7035C
(1522028022.252276) can0 264#0003848C00000173
(1522028022.257020) can0 050#8000900000000000
(1522028022.257262) can0 111#B000100000006000
(1522028022.257503) can0 113#00000500520D0000
(1522028022.257745) can0 010#06BB000080008064
(1522028022.257983) can0 115#4E0001FE00000171
(1522028022.258213) can0 117#F935802C802B802C
(1522028022.258457) can0 118#220D000060000000
(1522028022.258699) can0 119#4305000000000000
(1522028022.258939) can0 122#7D7D3C00F400035B
(1522028022.259187) can0 123#0000300000000000
(1522028022.259433) can0 299#0600000000000000
(1522028022.259682) can0 301#9400000000000000
(1522028022.259926) can0 4EC#8B22980000000000
(1522028022.267019) can0 121#0000000040000000
(1522028022.267264) can0 140#0000000080000921
(1522028022.267500) can0 229#003B8023000009DC
(1522028022.267743) can0 010#07AB000080008064
(1522028022.267983) can0 25C#F8600000020D09DC
(1522028022.268217) can0 339#153F00E4C64DC1FD
(1522028022.268461) can0 091#00007F6E7F090001
(1522028022.269257) can0 14A#6BF957FD0005FFFF
(1522028022.269490) can0 170#82B882BB82BD82BB
(1522028022.269733) can0 211#00A0000520000407
(1522028022.269970) can0 253#01FE02017DFD0363
(1522028022.270200) can0 254#918F443E53A7035C
(1522028022.270434) can0 262#07FD07FDDF7725C3
(1522028022.270682) can0 263#00000FFF00000FFE
(1522028022.270921) can0 346#F10E2B80FD000000
(1522028022.271169) can0 417#0002820000000000
(1522028022.272029) can0 050#8000900000000000
(1522028022.272271) can0 111#B000100000006000
(1522028022.272513) can0 113#00000500520E0000
(1522028022.272757) can0 115#4E0001FE00000170
(1522028022.272988) can0 117#F935802D802B802D
(1522028022.273232) can0 118#220D000060000000
(1522028022.273474) can0 119#4305000000000000
(1522028022.273714) can0 122#7D7D3C00F400035B
(1522028022.273962) can0 123#0000300000000000
(1522028022.274199) can0 264#0003948C0D00FD73
(1522028022.274461) can0 342#0027077F0E0039A6
(1522028022.274717) can0 344#A5A1B1A845AA4000
(1522028022.274987) can0 40A#C0003E11471DD038
(1522028022.275265) can0 441#C06A2A0000000000
(1522028022.275537) can0 494#B4A412000185055B
(1522028022.277716) can0 010#089B000080008064
(1522028022.287020) can0 050#8000900000000000
(1522028022.287260) can0 111#B000100000006000
(1522028022.287502) can0 113#00000500520E0000
(1522028022.287746) can0 010#098B000080008064
(1522028022.287990) can0 115#4E0001FE00000170
(1522028022.288220) can0 117#F935802D802B802D
(1522028022.288466) can0 091#00007F607F070001
(1522028022.288713) can0 118#220E000060000000
(1522028022.288954) can0 119#4305000000000000
(1522028022.289204) can0 121#0000000040000000
(1522028022.289445) can0 122#7D7D3C00F400035B
(1522028022.289696) can0 123#0000300000000000
(1522028022.289937) can0 140#000000008000091E
(1522028022.290175) can0 14A#6BF867FD0005FFFF
(1522028022.290410) can0 170#82BB82BB82BB82B8
(1522028022.290651) can0 211#00A0000520000407
(1522028022.290890) can0 229#003B8023000009DF
(1522028022.291130) can0 253#01FE02027DFA0363
(1522028022.291361) can0 254#918F343F63A7035C
(1522028022.291604) can0 25C#F8600000020E09DF
(1522028022.291850) can0 299#0600000000000000
(1522028022.292098) can0 301#9400000000000000
(1522028022.292339) can0 264#0003848C02000173
(1522028022.292573) can0 339#153F00E4C64DC1FD
(1522028022.292809) can0 444#014A7C7900009398
(1522028022.293057) can0 65A#0000000800000000
(1522028022.297673) can0 010#0A7B000080008064
(1522028022.299254) can0 262#07FD07FDE07927C5
(1522028022.299502) can0 263#00000FFF00000FFE
(1522028022.299744) can0 346#F00F2B80FD000000
(1522028022.299990) can0 417#0002820000000000
(1522028022.302032) can0 050#8000900000000000
(1522028022.302274) can0 111#B000100000006000
(1522028022.302516) can0 113#00000500520E0000
(1522028022.302761) can0 115#4E0001FE00000170
(1522028022.302991) can0 117#F935802E802C802E
(1522028022.303237) can0 118#220E000060000000
(1522028022.303479) can0 119#4305000000000000
(1522028022.303719) can0 122#7D7D3C00F400035B
(1522028022.303967) can0 123#0000300000000000
(1522028022.304201) can0 342#0007073D0E0039A6
(1522028022.304458) can0 344#A5A1B1A845AA0000
(1522028022.304716) can0 350#002403DA42E1E39C
(1522028022.307104) can0 121#0000000040000000
(1522028022.307348) can0 140#0000000080000923
(1522028022.307587) can0 229#003B8023000009DE
(1522028022.307831) can0 010#0B6B000080008064
(1522028022.308075) can0 25C#F8600000020E09DE
(1522028022.308443) can0 091#00007F447F010001
(1522028022.309285) can0 14A#6BF777FD0005FFFF
(1522028022.309516) can0 170#82BB82B882B882B8
(1522028022.309761) can0 211#00A0000520000407
(1522028022.309999) can0 253#01FF02017DFA0363
(1522028022.310227) can0 254#918F243F73A7035C
(1522028022.312274) can0 264#0003848C00007D73
(1522028022.312544) can0 494#B42412000185055B
(1522028022.317020) can0 050#8000900000000000
(1522028022.317262) can0 111#B000100000006000
(1522028022.317504) can0 113#00000500520E0000
(1522028022.317749) can0 010#0C5B000080008064
(1522028022.317993) can0 115#4E0001FE00000170
(1522028022.318223) can0 117#F935802E802C802E
(1522028022.318455) can0 04A#00D8D8D8FED8D8D8
(1522028022.318701) can0 118#220E000060000000
(1522028022.318943) can0 119#4305000000000000
(1522028022.319184) can0 122#7D7D3C00F400035B
(1522028022.319432) can0 123#0000300000000000
(1522028022.319680) can0 299#0600000000000000
(1522028022.319924) can0 301#9500000000000000
(1522028022.320158) can0 339#153F00E4C64DC1FD
(1522028022.322315) can0 400#2002030000010001
(1522028022.322595) can0 405#2300000000000000
(1522028022.327017) can0 121#0000000040000000
(1522028022.327261) can0 140#0000000080000924
(1522028022.327501) can0 229#003B8023000009D0
(1522028022.327743) can0 010#0D4B000080008064
(1522028022.327987) can0 25C#F8600000020E09D0
(1522028022.328353) can0 091#00007F397EFF0001
(1522028022.329248) can0 14A#6BF687FB0005FFFF
(1522028022.329482) can0 170#82B882B882B882B8
(1522028022.329726) can0 211#00A0000520000407
(1522028022.329964) can0 253#01FE02007DFA0362
(1522028022.330194) can0 254#918F143F83A7035C
(1522028022.330426) can0 262#07FD07FDE27A29C6
(1522028022.330674) can0 263#00000FFF00000FFE
(1522028022.330915) can0 346#FF002B80FD000000
(1522028022.331165) can0 417#0002820000000000
(1522028022.332045) can0 050#8000900000000000
(1522028022.332290) can0 111#B000100000006000
(1522028022.332520) can0 113#00000500520E0000
(1522028022.332760) can0 115#4E00020000000173
(1522028022.332998) can0 117#F935802E802C802E
(1522028022.333243) can0 118#220E000060000000
(1522028022.333479) can0 119#4305000000000000
(1522028022.333713) can0 122#7D7D3C00F400035B
(1522028022.333961) can0 123#0000300000000000
(1522028022.334199) can0 264#0003948C0C008173
(1522028022.334461) can0 342#0027073F0E0039A6
(1522028022.334719) can0 344#85A1B1A845AA4000
(1522028022.335000) can0 441#C06A2A0000000000
(1522028022.337716) can0 010#0E3B000080008064
(1522028022.342005) can0 339#153F00E4C64DC1FD
(1522028022.347030) can0 050#8000900000000000
(1522028022.347257) can0 111#B000100000006000
(1522028022.347496) can0 113#00000500520D0000
(1522028022.347738) can0 010#0F2B000080008064
(1522028022.347979) can0 115#4E00020000000173
(1522028022.348211) can0 117#F935802C802E802C
(1522028022.348440) can0 04B#D8D8D8D8D8D8C000
(1522028022.348684) can0 091#00007F407EF50001
(1522028022.348930) can0 118#220E000060000000
(1522028022.349173) can0 119#4305000000000000
(1522028022.349423) can0 121#0000000040000000
(1522028022.349665) can0 122#7D7D3C00F400035B
(1522028022.349911) can0 123#0000300000000000
(1522028022.350156) can0 140#0000000080000926
(1522028022.350392) can0 14A#6BF597FA0005FFFF
(1522028022.350626) can0 170#82B882BB82B882BB
(1522028022.350868) can0 211#00A0000520000407
(1522028022.351108) can0 229#003B8023000009D0
(1522028022.351348) can0 253#01FC02007DFC0361
(1522028022.351579) can0 254#918F043F93A7035C
(1522028022.351823) can0 25C#F8600000020E09D0
(1522028022.352069) can0 299#0600000000000000
(1522028022.352309) can0 264#0003848C00000173
(1522028022.352555) can0 301#9500000000000000
(1522028022.352795) can0 340#191A80007F0FBFFF
(1522028022.353032) can0 494#B42412000185055B
(1522028022.357010) can0 444#014A7C7900009398
(1522028022.357254) can0 4EC#8B22980000000000
(1522028022.357702) can0 010#001B000080008064
(1522028022.359254) can0 262#07FD07FDE47C2AC8
(1522028022.359502) can0 263#00000FFF00000FFE
(1522028022.359741) can0 346#FE012B80FD000000
(1522028022.359988) can0 417#0002820000000000
(1522028022.362018) can0 050#8000900000000000
(1522028022.362259) can0 111#B000100000006000
(1522028022.362499) can0 113#00000500520D0000
(1522028022.362739) can0 115#4E00020000000173
(1522028022.362969) can0 117#F935802C802D802C
(1522028022.363215) can0 118#220E000060000000
(1522028022.363457) can0 119#4305000000000000
(1522028022.363697) can0 122#7D7D3C00F400035B
(1522028022.363946) can0 123#0000300000000000
(1522028022.364182) can0 342#0027077F0E0039A6
(1522028022.364438) can0 344#A5A1B1A845AA4000
(1522028022.367021) can0 121#0000000040000000
(1522028022.367265) can0 140#0000000080000922
(1522028022.367505) can0 229#003B8023000009D0
(1522028022.367751) can0 010#010B000080008064
(1522028022.367995) can0 25C#F8600000020E09D0
(1522028022.368231) can0 339#153F00E7C64DC1FD
(1522028022.368472) can0 091#00007F3D7EF10001
(1522028022.369246) can0 14A#6BF4A7F70005FFFF
(1522028022.369481) can0 170#82B882BB82BB82BB
(1522028022.369727) can0 211#00A0000520000407
(1522028022.369959) can0 253#01FE02017DFF0361
(1522028022.370191) can0 254#918FF43FA3A7035C
(1522028022.372267) can0 264#0003948C0D00FD73
(1522028022.372535) can0 350#000003DA42E1639C
(1522028022.377029) can0 050#8000900000000000
(1522028022.377271) can0 111#B000100000006000
(1522028022.377513) can0 113#00000500520E0000
(1522028022.377759) can0 010#02FB000080008064
(1522028022.377997) can0 115#4E00020100000174
(1522028022.378228) can0 117#F935802C802C802C
(1522028022.378474) can0 118#220E000060000000
(1522028022.378716) can0 119#4305000000000000
(1522028022.378956) can0 122#7D7D3C00F400035B
(1522028022.379204) can0 123#0000300000000000
(1522028022.379451) can0 299#0600000000000000
(1522028022.379699) can0 301#9600000000000000
(1522028022.387014) can0 121#0000000040000000
(1522028022.387261) can0 140#000000008000091F
(1522028022.387497) can0 229#003B8023000009DD
(1522028022.387741) can0 010#03EB000080008064
(1522028022.387985) can0 25C#F8600000020E09DD
(1522028022.388315) can0 091#00007F4B7EEF0001
(1522028022.389277) can0 14A#6BF3B7F60005FFFF
(1522028022.389509) can0 170#82B882BB82B882B8
(1522028022.389755) can0 211#00A0000520000407
(1522028022.389992) can0 253#01FE02027DFF0361
(1522028022.390222) can0 254#918FE43FB3A7035C
(1522028022.390456) can0 262#07FD07FDE57E2CCA
(1522028022.390704) can0 263#00000FFF00000FFE
(1522028022.390945) can0 346#FD022B80FD000000
(1522028022.391193) can0 417#0002820000000000
(1522028022.391441) can0 65A#0000000800000000
(1522028022.392031) can0 050#8000900000000000
(1522028022.392273) can0 111#B000100000006000
(1522028022.392513) can0 113#00000500520D0000
(1522028022.392751) can0 115#4E00020100000174
(1522028022.392982) can0 117#F935802C802D802C
(1522028022.393228) can0 118#220E000060000000
(1522028022.393470) can0 119#4305000000000000
(1522028022.393711) can0 122#7D7D3C00F400035B
(1522028022.393959) can0 123#0000300000000000
(1522028022.394199) can0 264#0003848C02000173
(1522028022.394435) can0 339#153F00E7C64DC1FD
(1522028022.394669) can0 342#0007073D0E0039A6
(1522028022.394937) can0 344#A5A1B1A845A90000
(1522028022.395212) can0 40A#FF00110210000000
(1522028022.395490) can0 441#C06A2A0000000000
(1522028022.395760) can0 494#B4A412000185055B
(1522028022.397714) can0 010#04DB000080008064
(1522028022.407011) can0 050#8000900000000000
(1522028022.407252) can0 111#B000100000006000
(1522028022.407492) can0 113#00000500520D0000
(1522028022.407737) can0 010#05CB000080008064
(1522028022.407975) can0 115#4E00020100000176
(1522028022.408205) can0 117#F935802C802D802C
(1522028022.408447) can0 091#00007F607EED0001
(1522028022.408693) can0 118#220E000060000000
(1522028022.408935) can0 119#4305000000000000
(1522028022.409185) can0 121#0000000040000000
(1522028022.409426) can0 122#7D7D3C00F400035B
(1522028022.409676) can0 123#0000300000000000
(1522028022.409918) can0 140#000000008000091E
(1522028022.410154) can0 14A#6BF2C7F50005FFFF
(1522028022.410388) can0 170#82B882BD82B882B8
(1522028022.410630) can0 211#00A0000520000407
(1522028022.410867) can0 229#003B8023000009E2
(1522028022.411107) can0 253#01FF02037E010361
(1522028022.411339) can0 254#918FD43FC3A7035C
(1522028022.411581) can0 25C#F8600000020E09E2
(1522028022.411827) can0 299#0600000000000000
(1522028022.412074) can0 301#9600000000000000
(1522028022.412315) can0 264#0003948C0C00FD73
(1522028022.417021) can0 339#153F00E7C64DC1FD
(1522028022.417701) can0 010#06BB000080008064
(1522028022.418342) can0 04A#00D8D8D8FED8D8D8
(1522028022.419281) can0 262#07FD07FDE77F2DCB
(1522028022.419493) can0 263#00000FFF00000FFE
(1522028022.419732) can0 346#FC032B80FD000000
(1522028022.419976) can0 417#0002820000000000
(1522028022.422065) can0 050#8000900000000000
(1522028022.422260) can0 111#B000100000006000
(1522028022.422500) can0 113#00000500520D0000
(1522028022.422746) can0 115#4E00020100000176
(1522028022.422975) can0 117#F935802C802D802C
(1522028022.423222) can0 118#220E000060000000
(1522028022.423464) can0 119#4305000000000000
(1522028022.423699) can0 122#7D7D3C00F400035B
(1522028022.423944) can0 123#0000300000000000
(1522028022.424183) can0 342#0027073F0E0039A6
(1522028022.424444) can0 344#A5A1B1A845A94000
(1522028022.427058) can0 121#0000000040000000
(1522028022.427266) can0 140#0000000080000924
(1522028022.427501) can0 229#003B8023000009EA
(1522028022.427751) can0 25C#F8600000020E09EA
(1522028022.427987) can0 010#07AB000080008064
(1522028022.428224) can0 444#014A7D7A00009398
(1522028022.428471) can0 091#00007F7C7EEB0001
(1522028022.429307) can0 14A#6BF1D7F40005FFFF
(1522028022.429481) can0 170#82B882BD82BB82B6
(1522028022.429726) can0 211#00A0000520000407
(1522028022.429961) can0 253#01FF02027E000361
(1522028022.430191) can0 254#918FC93FD3A70357
(1522028022.432424) can0 264#0003848C00000173
(1522028022.432606) can0 494#B42412000185055B
(1522028022.437092) can0 050#8000900000000000
(1522028022.437265) can0 111#B000100000006000
(1522028022.437500) can0 113#00000500520D0000
(1522028022.437743) can0 010#089B000080008064
(1522028022.437978) can0 115#4E00020100000176
(1522028022.438210) can0 117#F935802B802D802B
(1522028022.438458) can0 118#220E000060000000
(1522028022.438705) can0 119#4305000000000000
(1522028022.438944) can0 122#7D7D3C00F400035A
(1522028022.439188) can0 123#0000300000000000
(1522028022.439434) can0 299#0600000000000000
(1522028022.439687) can0 301#9600000000000000
(1522028022.442085) can0 339#153F00E7C64DC1FD
(1522028022.442357) can0 350#002403DA4267639C
(1522028022.447104) can0 121#0000000040000000
(1522028022.447259) can0 140#0000000080000923
(1522028022.447496) can0 229#003B8023000009E8
(1522028022.447739) can0 010#098B000080008064
(1522028022.447982) can0 25C#F8600000020D09E8
(1522028022.448304) can0 04B#D8D8D8D8D8D8C000
(1522028022.448547) can0 091#00007F7C7EEF0001
(1522028022.448787) can0 340#191A80007F0FBFFF
(1522028022.449266) can0 14A#6BF0E7F40005FFFF
(1522028022.449498) can0 170#82B882BD82B882B8
(1522028022.449746) can0 211#00A0000520000407
(1522028022.449985) can0 253#01FF02007DFF0361
(1522028022.450218) can0 254#918FB93FE3A70357
(1522028022.450460) can0 262#07FD07FDE8812FCD
(1522028022.450714) can0 263#00000FFF00000FFE
(1522028022.450941) can0 346#FB042B80FD000000
(1522028022.451192) can0 417#0002820000000000
(1522028022.452052) can0 050#8000900000000000
(1522028022.452274) can0 111#B000100000006000
(1522028022.452521) can0 113#00000500520D0000
(1522028022.452773) can0 115#4E00020100000176
(1522028022.452994) can0 117#F935802B802D802B
(1522028022.453234) can0 118#220D000060000000
(1522028022.453466) can0 119#4305000000000000
(1522028022.453711) can0 122#7D7D3C00F400035A
(1522028022.453955) can0 123#0000300000000000
(1522028022.454191) can0 264#0003948C0C008173
(1522028022.454450) can0 342#0007073D0E0039A6
(1522028022.454709) can0 344#85A1B1A845A90000
(1522028022.454999) can0 441#C06A2A0000000000
(1522028022.457107) can0 4EC#8B22980000000000
(1522028022.457803) can0 010#0A7B000080008064
(1522028022.467061) can0 050#8000900000000000
(1522028022.467250) can0 111#B000100000006000
(1522028022.467488) can0 113#00000500520D0000
(1522028022.467735) can0 010#0B6B000080008064
(1522028022.468027) can0 115#4E00020000000175
(1522028022.468224) can0 117#F935802B802C802B
(1522028022.468450) can0 091#00007F6E7EF40001
(1522028022.468698) can0 118#220D000060000000
(1522028022.468938) can0 119#4305000000000000
(1522028022.469187) can0 121#0000000040000000
(1522028022.469428) can0 122#7D7D3C00F4000359
(1522028022.469680) can0 123#0000300000000000
(1522028022.469918) can0 140#0000000080000924
(1522028022.470155) can0 14A#6BEFF7F50005FFFF
(1522028022.470386) can0 170#82B882BD82BB82B8
(1522028022.470626) can0 211#00A0000520000407
(1522028022.470863) can0 229#003B8023000009E5
(1522028022.471106) can0 253#01FF02007DFD0361
(1522028022.471339) can0 254#918FA93FF3A70357
(1522028022.471585) can0 25C#F8600000020D09E5
(1522028022.471830) can0 299#0600000000000000
(1522028022.472082) can0 301#9700000000000000
(1522028022.472327) can0 264#0003848C03007D73
(1522028022.472560) can0 339#153F00EAC64DC1FD
(1522028022.472792) can0 494#B4A412000185055B
(1522028022.477726) can0 010#0C5B000080008064
(1522028022.479292) can0 262#07FD07FDEA8231CF
(1522028022.479494) can0 263#00000FFF00000FFE
(1522028022.479733) can0 346#FA052B80FD000000
(1522028022.479979) can0 417#0002820000000000
(1522028022.482031) can0 050#8000900000000000
(1522028022.482255) can0 111#B000100000006000
(1522028022.482494) can0 113#00000500520D0000
(1522028022.482735) can0 115#4E00020000000175
(1522028022.482965) can0 117#F935802B802B802B
(1522028022.483209) can0 118#220D000060000000
(1522028022.483452) can0 119#4305000000000000
(1522028022.483690) can0 122#7D7D3C00F4000358
(1522028022.483938) can0 123#0000300000000000
(1522028022.484174) can0 342#0027077F0E0039A6
(1522028022.484432) can0 344#A5A1B1A845A94000
(1522028022.487012) can0 121#0000000040000000
(1522028022.487256) can0 140#0000000080000922
(1522028022.487493) can0 229#003B8023000009E1
(1522028022.487733) can0 25C#F8600000020D09E1
(1522028022.487975) can0 010#0D4B000080008064
(1522028022.488372) can0 091#00007F597EF50001
(1522028022.489234) can0 14A#6BFE07F70005FFFF
(1522028022.489466) can0 170#82B882BD82BB82BB
(1522028022.489719) can0 211#00A0000520000407
(1522028022.489950) can0 253#01FF02007DFD0361
(1522028022.490182) can0 254#918F943F03A7035C
(1522028022.490431) can0 65A#0000000800000000
(1522028022.492026) can0 339#153F00EAC64DC1FD
(1522028022.492331) can0 264#0003848C00000173
(1522028022.497054) can0 050#8000900000000000
(1522028022.497278) can0 111#B000100000006000
(1522028022.497517) can0 113#00000500520D0000
(1522028022.497761) can0 010#0E3B000080008064
(1522028022.498003) can0 115#4E00020000000175
(1522028022.498234) can0 117#F935802B802B802B
(1522028022.498478) can0 118#220D000060000000
(1522028022.498720) can0 119#4305000000000000
(1522028022.498958) can0 122#7D7D3C00F4000359
(1522028022.499206) can0 123#0000300000000000
(1522028022.499452) can0 299#0600000000000000
(1522028022.499710) can0 301#9700000000000000
(1522028022.499937) can0 444#014A7D7C00009398
(1522028022.507007) can0 121#0000000040000000
(1522028022.507251) can0 140#0000000080000926
(1522028022.507489) can0 229#003B8023000009E7
(1522028022.507731) can0 010#0F2B000080008064
(1522028022.507973) can0 25C#F8600000020D09E7
(1522028022.508285) can0 091#00007F4B7EF90001
(1522028022.509247) can0 14A#6BFD17F70005FFFF
(1522028022.509484) can0 170#82BB82C082BB82BB
(1522028022.509726) can0 211#00A0000520000407
(1522028022.509964) can0 253#020002027DFE0362
(1522028022.510198) can0 254#918F843F13A7035C
(1522028022.510432) can0 262#07FD07FDEC8432D0
(1522028022.510680) can0 263#00000FFF00000FFE
(1522028022.510919) can0 346#F9062B80FD000000
(1522028022.511167) can0 417#0002820000000000
(1522028022.512019) can0 050#8000900000000000
(1522028022.512261) can0 111#B000100000006000
(1522028022.512501) can0 113#00000500520D0000
(1522028022.512742) can0 115#4E0001FF00000174
(1522028022.512972) can0 117#F935802B802A802B
(1522028022.513216) can0 118#220D000060000000
(1522028022.513458) can0 119#4305000000000000
(1522028022.513696) can0 122#7D7D3C00F4000359
(1522028022.513945) can0 123#0000300000000000
(1522028022.514187) can0 264#0003948C0C00FD73
(1522028022.514449) can0 342#0027073F0E0039A6
(1522028022.514705) can0 344#A5A1B1A845A94000
(1522028022.514971) can0 350#002403DA4267E39C
(1522028022.515246) can0 40A#FF01248400044000
(1522028022.515524) can0 441#C06A2A0000000000
(1522028022.515796) can0 494#B42412000185055B
(1522028022.517004) can0 339#153F00EAC64DC1FD
(1522028022.517704) can0 010#0089803180108066
(1522028022.518398) can0 04A#00D8D8D8FED8D8D8
(1522028022.527007) can0 050#8000900000000000
(1522028022.527246) can0 111#B000100000006000
(1522028022.527486) can0 113#00000500520D0000
(1522028022.527726) can0 010#0179803180108066
(1522028022.527966) can0 115#4E0001FF00000174
(1522028022.528196) can0 117#F935802B802B802B
(1522028022.528439) can0 091#00007F367EFF0001
(1522028022.528683) can0 118#220D000060000000
(1522028022.528925) can0 119#4305000000000000
(1522028022.529175) can0 121#0000000040000000
(1522028022.529415) can0 122#7D7D3C00F400035A
(1522028022.529668) can0 123#0000300000000000
(1522028022.529910) can0 140#0000000080000920
(1522028022.530153) can0 14A#6BFC27F80005FFFF
(1522028022.530383) can0 170#82B882BD82BB82B8
(1522028022.530623) can0 211#00A0000520000407
(1522028022.530858) can0 229#003B8023000009EC
(1522028022.531094) can0 253#020102027DFF0363
(1522028022.531322) can0 254#918F743F23A7035C
(1522028022.531562) can0 25C#F8600000020D09EC
(1522028022.531809) can0 299#0600000000000000
(1522028022.532055) can0 301#9700000000000000
(1522028022.532295) can0 264#0003848C00000173
(1522028022.537657) can0 010#0269803180108066
(1522028022.539225) can0 262#07FD07FDED8634D2
(1522028022.539472) can0 263#00000FFF00000FFE
(1522028022.539714) can0 346#F8072B80FD000000
(1522028022.539958) can0 417#0002820000000000
(1522028022.542023) can0 050#8000900000000000
(1522028022.542253) can0 111#B000100000006000
(1522028022.542495) can0 113#00000500520D0000
(1522028022.542735) can0 115#4E0001FF00000174
(1522028022.542963) can0 117#F935802C802B802C
(1522028022.543209) can0 118#220D000060000000
(1522028022.543461) can0 119#4305000000000000
(1522028022.543710) can0 122#7D7D3C00F400035A
(1522028022.543951) can0 123#0000300000000000
(1522028022.544180) can0 339#153F00EAC64DC1FD
(1522028022.544409) can0 342#0007073D0E0039A6
(1522028022.544692) can0 344#A5A1B1A845A90000
(1522028022.547081) can0 121#0000000040000000
(1522028022.547266) can0 140#000000008000091E
(1522028022.547500) can0 229#003B8023000009EB
(1522028022.547747) can0 25C#F8600000020D09EB
(1522028022.547985) can0 010#0347803180208068
(1522028022.548353) can0 04B#D8D8D8D8D8D8C000
(1522028022.548593) can0 091#00007F287EFB0001
(1522028022.548834) can0 340#191A80007F0FBFFF
(1522028022.549236) can0 14A#6BFB37FA0005FFFF
(1522028022.549468) can0 170#82B882BD82B882B8
(1522028022.549720) can0 211#00A0000520000407
(1522028022.549946) can0 253#020202017DFF0364
(1522028022.550174) can0 254#918F643F33A7035C
(1522028022.552262) can0 264#0003948C0E008173
(1522028022.552532) can0 494#B42412000185055B
(1522028022.557015) can0 050#8000900000000000
(1522028022.557248) can0 111#B000100000006000
(1522028022.557488) can0 113#00000500520D0000
(1522028022.557722) can0 010#042480628031806A
(1522028022.557963) can0 115#4E0001FF00000174
(1522028022.558192) can0 117#F935802C802B802C
(1522028022.558436) can0 118#220D000060000000
(1522028022.558678) can0 119#4305000000000000
(1522028022.558922) can0 122#7D7D3C00F400035A
(1522028022.559172) can0 123#0000300000000000
(1522028022.559423) can0 299#0600000000000000
(1522028022.559670) can0 301#9800000000000000
(1522028022.559908) can0 4EC#8B22980000000000
(1522028022.567018) can0 121#0000000040000000
(1522028022.567250) can0 140#0000000080000923
(1522028022.567485) can0 229#003B8023000009E2
(1522028022.567725) can0 010#050180A38041806D
(1522028022.567965) can0 25C#F8600000020D09E2
(1522028022.568199) can0 339#153F00EDC64DC1FD
(1522028022.568439) can0 091#00007F1D7EF70001
(1522028022.568675) can0 444#014A7D7B00009398
(1522028022.569209) can0 14A#6BFA47F90005FFFF
(1522028022.569443) can0 170#82BB82BD82B882B8
(1522028022.569695) can0 211#00A0000520000407
(1522028022.569926) can0 253#020002017E000364
(1522028022.570158) can0 254#918F543F43A7035C
(1522028022.570392) can0 262#07FD07FDEF8735D3
(1522028022.570640) can0 263#00000FFF00000FFE
(1522028022.570878) can0 346#F7082B80FD000000
(1522028022.571127) can0 417#0002820000000000
(1522028022.572017) can0 050#8000900000000000
(1522028022.572259) can0 111#B000100000006000
(1522028022.572499) can0 113#00000500520D0000
(1522028022.572741) can0 115#4E00020000000175
(1522028022.572971) can0 117#F935802C802B802C
(1522028022.573216) can0 118#220D000060000000
(1522028022.573458) can0 119#4305000000000000
(1522028022.573698) can0 122#7D7D3C00F400035B
(1522028022.573946) can0 123#0000300000000000
(1522028022.574184) can0 264#0003848C01007D73
(1522028022.574446) can0 342#0027077F0E0039A6
(1522028022.574703) can0 344#85A1B1A845A94000
(1522028022.574987) can0 400#2101000000000005
(1522028022.575252) can0 405#016711471DDAFFFF
(1522028022.575530) can0 441#C06A2A0000000000
(1522028022.577724) can0 010#06DF80A38051806F
(1522028022.582288) can0 350#002403DA42D7639C
(1522028022.587004) can0 050#8000900000000000
(1522028022.587248) can0 111#B000100000006000
(1522028022.587487) can0 113#00000500520D0000
(1522028022.587722) can0 010#07BC80A380628071
(1522028022.587964) can0 115#4E00020000000175
(1522028022.588208) can0 091#00007F017EED0001
(1522028022.588438) can0 117#F935802B802B802B
(1522028022.588682) can0 118#220D000060000000
(1522028022.588924) can0 119#4305000000000000
(1522028022.589174) can0 121#0000000040000000
(1522028022.589415) can0 122#7D7D3C00F400035B
(1522028022.589666) can0 123#0000300000000000
(1522028022.589907) can0 140#0000000080000925
(1522028022.590145) can0 14A#6BF957F80005FFFF
(1522028022.590377) can0 170#82BB82BD82BB82B8
(1522028022.590619) can0 211#00A0000520000407
(1522028022.590858) can0 229#003B8023000009DF
(1522028022.591098) can0 253#020002027E010364
(1522028022.591326) can0 254#918F443F53A7035C
(1522028022.591568) can0 25C#F8600000020D09DF
(1522028022.591814) can0 299#0600000000000000
(1522028022.592064) can0 301#9800000000000000
(1522028022.592302) can0 264#0003948C0C008173
(1522028022.592536) can0 339#153F00EDC64DC1FD
(1522028022.592773) can0 494#B4A412000185055B
(1522028022.593021) can0 65A#0000000800000000
(1522028022.597657) can0 010#089980A380728074
(1522028022.599253) can0 262#07FD07FDF08937D5
(1522028022.599501) can0 263#00000FFF00000FFE
(1522028022.599742) can0 346#F6092B80FD000000
(1522028022.599989) can0 417#0002820000000000
(1522028022.602007) can0 050#8000900000000000
(1522028022.602249) can0 111#B000100000006000
(1522028022.602489) can0 113#00000500520D0000
(1522028022.602727) can0 115#4E0001FF00000173
(1522028022.602957) can0 117#F935802B802B802B
